hour, t(sec), V1, VAngle1, V2, VAngle2, I1, IAngle1, I2, IAngle2
0, 600.00000, 8016.92, -121.712, 0, 0, 34.4677, 35.4649, 34.4678, -144.535
0, 1200.00000, 8037.39, -122.038, 0, 0, 40.5501, 35.0845, 40.5501, -144.916
0, 1800.00000, 8061.06, -121.932, 0, 0, 38.5772, 35.1319, 38.5772, -144.868
0, 2400.00000, 8056.72, -121.951, 0, 0, 38.9453, 35.1235, 38.9453, -144.877
0, 3000.00000, 8068.57, -121.898, 0, 0, 37.9498, 35.1465, 37.9499, -144.854
1, 0.00000, 8052.46, -121.97, 0, 0, 39.2945, 35.1137, 39.2945, -144.886
1, 600.00000, 8061.08, -121.932, 0, 0, 38.5708, 35.1283, 38.5708, -144.872
1, 1200.00000, 8065.45, -121.913, 0, 0, 38.1987, 35.136, 38.1987, -144.864
1, 1800.00000, 8078.48, -121.856, 0, 0, 37.1001, 35.1583, 37.1002, -144.842
1, 2400.00000, 8059.14, -121.942, 0, 0, 38.7074, 35.1185, 38.7074, -144.882
1, 3000.00000, 8078.59, -121.856, 0, 0, 37.0799, 35.1538, 37.08, -144.846
2, 0.00000, 8053.8, -121.966, 0, 0, 39.1462, 35.1062, 39.1462, -144.894
2, 600.00000, 8087.24, -121.817, 0, 0, 36.3518, 35.1714, 36.3519, -144.829
2, 1200.00000, 8067.85, -121.904, 0, 0, 37.9677, 35.1333, 37.9678, -144.867
2, 1800.00000, 8088.34, -121.813, 0, 0, 36.2589, 35.173, 36.259, -144.827
2, 2400.00000, 8059.22, -121.942, 0, 0, 38.6884, 35.1177, 38.6884, -144.882
2, 3000.00000, 8075.37, -121.87, 0, 0, 37.3433, 35.1491, 37.3434, -144.851
3, 0.00000, 8071.07, -121.889, 0, 0, 37.7007, 35.14, 37.7008, -144.86
3, 600.00000, 8082.93, -121.836, 0, 0, 36.7122, 35.1637, 36.7122, -144.836
3, 1200.00000, 8063.48, -121.922, 0, 0, 38.3373, 35.1297, 38.3373, -144.87
3, 1800.00000, 8077.48, -121.859, 0, 0, 37.1663, 35.1609, 37.1664, -144.839
3, 2400.00000, 8067.77, -121.902, 0, 0, 37.973, 35.1448, 37.973, -144.855
3, 3000.00000, 8079.52, -121.849, 0, 0, 37.0064, 35.1719, 37.0064, -144.828
4, 0.00000, 8055.76, -121.954, 0, 0, 38.9978, 35.1306, 38.9979, -144.869
4, 600.00000, 8080.45, -121.843, 0, 0, 36.9469, 35.1843, 36.9469, -144.816
4, 1200.00000, 8060.97, -121.929, 0, 0, 38.5821, 35.1482, 38.5821, -144.852
4, 1800.00000, 8074.82, -121.867, 0, 0, 37.445, 35.1826, 37.445, -144.818
4, 2400.00000, 8064, -121.915, 0, 0, 38.3522, 35.1618, 38.3522, -144.838
4, 3000.00000, 8060.75, -121.929, 0, 0, 38.6262, 35.1552, 38.6262, -144.845
5, 0.00000, 8063.93, -121.915, 0, 0, 38.3668, 35.1637, 38.3668, -144.836
5, 600.00000, 8064.99, -121.91, 0, 0, 38.2814, 35.1666, 38.2814, -144.833
5, 1200.00000, 8073.56, -121.871, 0, 0, 37.5732, 35.1844, 37.5733, -144.816
5, 1800.00000, 8059.53, -121.934, 0, 0, 38.7464, 35.1573, 38.7464, -144.843
5, 2400.00000, 8073.92, -122.076, 0, 0, 41.386, 34.9762, 41.386, -145.024
5, 3000.00000, 8087.77, -122.216, 0, 0, 43.9424, 34.879, 43.9424, -145.121
6, 0.00000, 8134.95, -121.806, 0, 0, 36.308, 35.0835, 36.308, -144.917
6, 600.00000, 8077.36, -122.062, 0, 0, 41.0748, 34.9651, 41.0748, -145.035
6, 1200.00000, 8110.55, -122.721, 0, 0, 53.0969, 34.3161, 53.0969, -145.684
6, 1800.00000, 8165.21, -122.078, 0, 0, 41.3525, 34.8085, 41.3525, -145.192
6, 2400.00000, 7992.1, -123.115, 0, 0, 61.6509, 34.1687, 61.6509, -145.831
6, 3000.00000, 7820.91, -123.83, 0, 0, 76.0256, 33.9459, 76.0256, -146.054
7, 0.00000, 7791.6, -123.954, 0, 0, 78.5277, 33.9079, 78.5277, -146.092
7, 600.00000, 7778.99, -124.006, 0, 0, 79.6161, 33.8927, 79.6161, -146.107
7, 1200.00000, 7801.88, -123.909, 0, 0, 77.6653, 33.9194, 77.6653, -146.081
7, 1800.00000, 7777.83, -124.01, 0, 0, 79.7285, 33.8881, 79.7285, -146.112
7, 2400.00000, 7812.14, -123.864, 0, 0, 76.8105, 33.9322, 76.8106, -146.068
7, 3000.00000, 7761.85, -124.074, 0, 0, 81.134, 33.8695, 81.134, -146.131
8, 0.00000, 7763.8, -124.064, 0, 0, 80.9788, 33.8707, 80.9789, -146.129
8, 600.00000, 7765.85, -124.055, 0, 0, 80.8017, 33.8648, 80.8018, -146.135
8, 1200.00000, 7748.17, -124.129, 0, 0, 82.3136, 33.8264, 82.3136, -146.174
8, 1800.00000, 7752.22, -124.111, 0, 0, 81.9731, 33.8306, 81.9731, -146.169
8, 2400.00000, 7779.18, -123.996, 0, 0, 79.6535, 33.8488, 79.6535, -146.151
8, 3000.00000, 7734.59, -124.184, 0, 0, 83.4778, 33.7877, 83.4778, -146.212
9, 0.00000, 7749.02, -124.122, 0, 0, 82.2266, 33.7868, 82.2266, -146.213
9, 600.00000, 7746.92, -124.131, 0, 0, 82.4074, 33.7795, 82.4074, -146.22
9, 1200.00000, 7712.83, -124.275, 0, 0, 85.345, 33.732, 85.345, -146.268
9, 1800.00000, 7662.55, -124.488, 0, 0, 89.7066, 33.6595, 89.7066, -146.341
9, 2400.00000, 7671.71, -124.449, 0, 0, 88.9117, 33.6673, 88.9117, -146.333
9, 3000.00000, 7752.05, -124.109, 0, 0, 81.96, 33.7632, 81.96, -146.237
10, 0.00000, 7690.19, -124.371, 0, 0, 87.3013, 33.6833, 87.3013, -146.317
10, 600.00000, 7700.41, -124.327, 0, 0, 86.4144, 33.6881, 86.4144, -146.312
10, 1200.00000, 7763.42, -124.06, 0, 0, 80.9815, 33.7612, 80.9816, -146.239
10, 1800.00000, 7815.52, -123.84, 0, 0, 76.5328, 33.8192, 76.5328, -146.181
10, 2400.00000, 7670.61, -124.453, 0, 0, 89.0072, 33.6413, 89.0072, -146.359
10, 3000.00000, 7686.01, -124.388, 0, 0, 87.665, 33.6627, 87.6651, -146.337
11, 0.00000, 7677.86, -124.423, 0, 0, 88.3652, 33.6487, 88.3653, -146.351
11, 600.00000, 7742.86, -124.149, 0, 0, 82.7259, 33.7295, 82.7259, -146.271
11, 1200.00000, 7643.42, -124.572, 0, 0, 91.3386, 33.6061, 91.3386, -146.394
11, 1800.00000, 7659.84, -124.503, 0, 0, 89.8898, 33.625, 89.8898, -146.375
11, 2400.00000, 7656.99, -124.517, 0, 0, 90.1172, 33.6198, 90.1172, -146.38
11, 3000.00000, 7689.83, -124.377, 0, 0, 87.2469, 33.66, 87.2469, -146.34
12, 0.00000, 7893.23, -123.52, 0, 0, 69.8689, 33.8947, 69.8689, -146.105
12, 600.00000, 7815.42, -123.848, 0, 0, 76.4328, 33.8013, 76.4328, -146.199
12, 1200.00000, 7763.45, -124.069, 0, 0, 80.8612, 33.7424, 80.8613, -146.258
12, 1800.00000, 7781.24, -123.995, 0, 0, 79.3269, 33.759, 79.3269, -146.241
12, 2400.00000, 7833.52, -123.775, 0, 0, 74.8733, 33.8166, 74.8733, -146.183
12, 3000.00000, 7885.02, -123.557, 0, 0, 70.538, 33.879, 70.538, -146.121
13, 0.00000, 7900.99, -123.491, 0, 0, 69.188, 33.8938, 69.1881, -146.106
13, 600.00000, 7840.58, -123.742, 0, 0, 74.3029, 33.8335, 74.303, -146.167
13, 1200.00000, 7890.17, -123.535, 0, 0, 70.1214, 33.8849, 70.1214, -146.115
13, 1800.00000, 7835.31, -123.766, 0, 0, 74.7602, 33.8217, 74.7602, -146.178
13, 2400.00000, 7836.57, -123.752, 0, 0, 74.7386, 33.8477, 74.7386, -146.152
13, 3000.00000, 7812.25, -123.853, 0, 0, 76.8311, 33.8234, 76.8311, -146.177
14, 0.00000, 7798.31, -123.91, 0, 0, 78.0629, 33.8112, 78.0629, -146.189
14, 600.00000, 7767.98, -124.038, 0, 0, 80.6793, 33.7814, 80.6794, -146.219
14, 1200.00000, 7751.27, -124.108, 0, 0, 82.1304, 33.7641, 82.1304, -146.236
14, 1800.00000, 7729.41, -124.201, 0, 0, 84.033, 33.732, 84.033, -146.268
14, 2400.00000, 7855.69, -123.669, 0, 0, 73.2538, 33.8936, 73.2538, -146.106
14, 3000.00000, 7718.06, -124.249, 0, 0, 85.0213, 33.7259, 85.0214, -146.274
15, 0.00000, 7746, -124.132, 0, 0, 82.6219, 33.7775, 82.6219, -146.222
15, 600.00000, 7827.3, -123.79, 0, 0, 75.6809, 33.8803, 75.6809, -146.12
15, 1200.00000, 7860.03, -123.654, 0, 0, 72.8952, 33.9188, 72.8953, -146.081
15, 1800.00000, 7854.83, -123.677, 0, 0, 73.334, 33.9162, 73.334, -146.084
15, 2400.00000, 7890.84, -123.527, 0, 0, 70.2943, 33.9683, 70.2943, -146.032
15, 3000.00000, 7931.45, -123.359, 0, 0, 66.8892, 34.0551, 66.8892, -145.945
16, 0.00000, 7838.31, -123.75, 0, 0, 74.7285, 33.9473, 74.7285, -146.053
16, 600.00000, 7767.29, -124.05, 0, 0, 80.7914, 33.8713, 80.7915, -146.129
16, 1200.00000, 7750.71, -124.12, 0, 0, 82.2142, 33.8528, 82.2142, -146.147
16, 1800.00000, 7757.95, -124.09, 0, 0, 81.6041, 33.8707, 81.6042, -146.129
16, 2400.00000, 7762.09, -124.073, 0, 0, 81.2516, 33.8758, 81.2516, -146.124
16, 3000.00000, 7780.79, -123.995, 0, 0, 79.6556, 33.9016, 79.6557, -146.098
17, 0.00000, 7794.42, -123.938, 0, 0, 78.4876, 33.9211, 78.4876, -146.079
17, 600.00000, 7797.59, -123.926, 0, 0, 78.2135, 33.9211, 78.2135, -146.079
17, 1200.00000, 7763.33, -124.071, 0, 0, 81.1364, 33.8777, 81.1364, -146.122
17, 1800.00000, 7818.86, -123.839, 0, 0, 76.3653, 33.9507, 76.3653, -146.049
17, 2400.00000, 7805.29, -123.897, 0, 0, 77.5184, 33.9324, 77.5184, -146.068
17, 3000.00000, 7917.09, -123.428, 0, 0, 68.078, 34.075, 68.078, -145.925
18, 0.00000, 8135.27, -122.617, 0, 0, 51.4134, 34.2831, 51.4134, -145.717
18, 600.00000, 8463.24, -121.206, 0, 0, 25.1026, 34.9269, 25.1026, -145.073
18, 1200.00000, 8040.89, -120.744, 0, 0, 16.2396, 36.5992, 16.2397, -143.401
18, 1800.00000, 8039.65, -120.75, 0, 0, 16.3867, 36.5812, 16.3867, -143.419
18, 2400.00000, 8058.41, -120.67, 0, 0, 14.7657, 36.6386, 14.7657, -143.362
18, 3000.00000, 8070.76, -120.615, 0, 0, 13.703, 36.694, 13.703, -143.306
19, 0.00000, 8062.25, -120.653, 0, 0, 14.4872, 36.6318, 14.4872, -143.368
19, 600.00000, 8066.35, -120.636, 0, 0, 14.1424, 36.634, 14.1424, -143.366
19, 1200.00000, 8028.13, -120.587, 0, 0, 13.2056, 36.8291, 13.2057, -143.171
19, 1800.00000, 8029.26, -120.583, 0, 0, 13.0958, 36.8192, 13.0959, -143.181
19, 2400.00000, 8030.48, -120.579, 0, 0, 12.9658, 36.8068, 12.9658, -143.193
19, 3000.00000, 8027.44, -120.593, 0, 0, 13.2281, 36.7867, 13.2281, -143.214
20, 0.00000, 8019.27, -120.629, 0, 0, 13.9396, 36.7421, 13.9396, -143.258
20, 600.00000, 8026.5, -120.597, 0, 0, 13.2982, 36.774, 13.2983, -143.226
20, 1200.00000, 8019.35, -120.63, 0, 0, 13.9223, 36.7329, 13.9223, -143.267
20, 1800.00000, 8024.37, -120.606, 0, 0, 13.4916, 36.7785, 13.4916, -143.222
20, 2400.00000, 8018.21, -120.633, 0, 0, 14.0333, 36.7479, 14.0333, -143.252
20, 3000.00000, 8016.21, -120.643, 0, 0, 14.2014, 36.7359, 14.2014, -143.264
21, 0.00000, 8038.01, -120.549, 0, 0, 12.2815, 36.8174, 12.2815, -143.183
21, 600.00000, 8033.91, -120.567, 0, 0, 12.642, 36.788, 12.642, -143.212
21, 1200.00000, 8043.23, -120.526, 0, 0, 11.8134, 36.8327, 11.8134, -143.168
21, 1800.00000, 8040.07, -120.541, 0, 0, 12.1076, 36.7994, 12.1077, -143.201
21, 2400.00000, 8032.72, -120.574, 0, 0, 12.787, 36.7413, 12.787, -143.259
21, 3000.00000, 8034.73, -120.565, 0, 0, 12.6161, 36.7488, 12.6161, -143.251
22, 0.00000, 8029.54, -120.588, 0, 0, 13.0835, 36.7212, 13.0836, -143.279
22, 600.00000, 8042.96, -120.528, 0, 0, 11.8919, 36.7915, 11.8919, -143.209
22, 1200.00000, 8038.88, -120.546, 0, 0, 12.2461, 36.7707, 12.2461, -143.23
22, 1800.00000, 8029.59, -120.588, 0, 0, 13.0692, 36.7249, 13.0692, -143.275
22, 2400.00000, 8043, -120.528, 0, 0, 11.8798, 36.7977, 11.8798, -143.203
22, 3000.00000, 8039.95, -120.541, 0, 0, 12.1411, 36.783, 12.1411, -143.217
23, 0.00000, 8037.04, -120.555, 0, 0, 12.3708, 36.7654, 12.3709, -143.235
23, 600.00000, 8038.12, -120.55, 0, 0, 12.2625, 36.7817, 12.2625, -143.219
23, 1200.00000, 7965.26, -120.876, 0, 0, 18.679, 36.4914, 18.679, -143.509
23, 1800.00000, 7995.76, -120.956, 0, 0, 20.2172, 36.3093, 20.2172, -143.691
23, 2400.00000, 7989.51, -120.983, 0, 0, 20.7671, 36.2997, 20.7672, -143.7
23, 3000.00000, 7994.74, -120.96, 0, 0, 20.3009, 36.3102, 20.3009, -143.69
24, 0.00000, 7981.37, -121.021, 0, 0, 21.4646, 36.2681, 21.4646, -143.732
