hour, t(sec), V1, VAngle1, V2, VAngle2, V3, VAngle3, V4, VAngle4, I1, IAngle1, I2, IAngle2, I3, IAngle3, I4, IAngle4
0, 600.00000, 125.954, -32.754, 126.254, -152.844, 126.089, 87.0266, 2.034E-006, 138.48, 61.3713, 122.773, 62.684, 9.40696, 69.2919, -111.303, 4.38359, 141.819
0, 1200.00000, 126.269, -33.0511, 126.571, -153.143, 126.398, 86.7278, 2.03485E-006, 137.621, 60.9106, 122.392, 62.3296, 9.14439, 68.9739, -111.708, 4.36539, 141.061
0, 1800.00000, 126.673, -32.9437, 126.983, -153.042, 126.792, 86.8283, 2.03173E-006, 136.977, 60.8523, 122.342, 62.4594, 9.34273, 69.3013, -111.781, 4.37587, 140.189
0, 2400.00000, 126.586, -32.9746, 126.896, -153.072, 126.71, 86.7978, 2.05253E-006, 137.252, 61.4839, 122.357, 63.0387, 9.26205, 69.8679, -111.757, 4.41961, 140.56
0, 3000.00000, 126.8, -32.9129, 127.11, -153.011, 126.919, 86.8591, 2.04086E-006, 137.048, 60.991, 122.362, 62.6134, 9.34927, 69.4485, -111.767, 4.39507, 140.303
1, 0.00000, 126.526, -32.9847, 126.83, -153.079, 126.65, 86.7917, 2.0351E-006, 137.531, 60.9699, 122.391, 62.4707, 9.22244, 69.1761, -111.725, 4.38098, 140.83
1, 600.00000, 126.679, -32.9463, 126.975, -153.038, 126.808, 86.8362, 2.03435E-006, 138.273, 60.9025, 122.496, 62.3349, 9.13268, 68.8357, -111.645, 4.38214, 141.616
1, 1200.00000, 126.772, -32.9125, 127.065, -153.003, 126.898, 86.8724, 2.00704E-006, 138.253, 60.0912, 122.52, 61.5362, 9.17254, 67.9564, -111.637, 4.3252, 141.554
1, 1800.00000, 127.021, -32.836, 127.307, -152.926, 127.142, 86.9536, 1.97631E-006, 138.411, 59.0133, 122.586, 60.4763, 9.21688, 66.738, -111.605, 4.25628, 141.68
1, 2400.00000, 126.702, -32.9139, 126.98, -152.999, 126.828, 86.8816, 1.9562E-006, 138.948, 58.5476, 122.622, 59.8768, 9.09021, 65.9643, -111.554, 4.21086, 142.216
1, 3000.00000, 127.048, -32.8223, 127.317, -152.905, 127.174, 86.9792, 1.95017E-006, 139.665, 58.1766, 122.746, 59.4812, 9.05096, 65.3545, -111.47, 4.19946, 142.931
2, 0.00000, 126.623, -32.9295, 126.894, -153.011, 126.752, 86.8713, 1.93715E-006, 139.394, 58.0621, 122.677, 59.3148, 9.0147, 65.2382, -111.508, 4.16991, 142.666
2, 600.00000, 127.21, -32.7698, 127.483, -152.856, 127.328, 87.0283, 1.92617E-006, 138.878, 57.4252, 122.692, 58.8481, 9.21771, 64.8288, -111.536, 4.14865, 142.105
2, 1200.00000, 126.88, -32.8525, 127.153, -152.937, 127, 86.9461, 1.91428E-006, 138.732, 57.2726, 122.654, 58.6402, 9.17163, 64.6217, -111.554, 4.12061, 142.018
2, 1800.00000, 127.232, -32.7622, 127.504, -152.848, 127.35, 87.0367, 1.9196E-006, 138.863, 57.2643, 122.702, 58.6877, 9.22015, 64.6429, -111.536, 4.13396, 142.108
2, 2400.00000, 126.73, -32.8897, 127.007, -152.976, 126.848, 86.906, 1.91142E-006, 138.285, 57.2524, 122.59, 58.6428, 9.21179, 64.7262, -111.599, 4.11336, 141.581
2, 3000.00000, 127.003, -32.8228, 127.279, -152.91, 127.121, 86.9733, 1.9245E-006, 138.561, 57.4826, 122.637, 58.9016, 9.22406, 64.9593, -111.57, 4.14448, 141.814
3, 0.00000, 126.931, -32.8399, 127.207, -152.927, 127.049, 86.9559, 1.92122E-006, 138.515, 57.3882, 122.62, 58.8048, 9.22804, 64.8759, -111.58, 4.13523, 141.715
3, 600.00000, 127.135, -32.7871, 127.412, -152.875, 127.251, 87.0086, 1.92088E-006, 138.435, 57.3539, 122.643, 58.8102, 9.26488, 64.8751, -111.58, 4.13648, 141.686
3, 1200.00000, 126.795, -32.8707, 127.086, -152.964, 126.904, 86.9145, 1.91669E-006, 136.883, 57.3427, 122.439, 58.9127, 9.43357, 65.3361, -111.731, 4.12415, 140.166
3, 1800.00000, 127.043, -32.7937, 127.349, -152.896, 127.136, 86.9794, 1.89745E-006, 134.943, 56.6299, 122.257, 58.4684, 9.79472, 65.2767, -111.901, 4.08736, 138.107
3, 2400.00000, 126.882, -32.824, 127.2, -152.932, 126.965, 86.9399, 1.88046E-006, 133.163, 56.0445, 122.068, 58.0307, 10.027, 65.1529, -112.05, 4.04559, 136.396
3, 3000.00000, 127.058, -32.7856, 127.393, -152.903, 127.128, 86.9654, 1.8838E-006, 131.345, 56.9065, 121.913, 59.1323, 10.2258, 66.6722, -112.271, 4.05829, 134.477
4, 0.00000, 126.634, -32.8924, 126.991, -153.018, 126.696, 86.8431, 1.89682E-006, 128.968, 57.1639, 121.631, 59.5542, 10.4451, 67.6155, -112.474, 4.07273, 132.309
4, 600.00000, 127.041, -32.7892, 127.415, -152.925, 127.087, 86.9324, 1.90263E-006, 127.259, 57.62, 121.48, 60.298, 10.7316, 68.8053, -112.648, 4.10828, 130.335
4, 1200.00000, 126.685, -32.8867, 127.072, -153.027, 126.728, 86.8258, 1.92062E-006, 125.745, 58.3426, 121.328, 61.0943, 10.7728, 69.9147, -112.791, 4.12311, 129.099
4, 1800.00000, 126.886, -32.8438, 127.299, -152.997, 126.912, 86.8491, 1.94502E-006, 123.619, 59.5433, 121.107, 62.6192, 11.0394, 72.0832, -113.027, 4.19514, 126.597
4, 2400.00000, 126.69, -32.8997, 127.106, -153.053, 126.718, 86.7908, 1.96339E-006, 123.415, 60.0097, 121.076, 63.0687, 10.9976, 72.6101, -113.042, 4.21989, 126.59
4, 3000.00000, 126.627, -32.9199, 127.044, -153.073, 126.657, 86.7701, 1.96903E-006, 123.363, 60.3275, 121.077, 63.3716, 10.9614, 72.9311, -113.038, 4.23705, 126.729
5, 0.00000, 126.67, -32.9141, 127.091, -153.069, 126.7, 86.7731, 1.98523E-006, 123.336, 60.8086, 121.069, 63.8834, 10.9629, 73.5276, -113.044, 4.27367, 126.712
5, 600.00000, 126.682, -32.9124, 127.108, -153.069, 126.71, 86.7713, 1.99453E-006, 123.478, 61.007, 121.03, 64.1304, 11.0058, 73.8865, -113.071, 4.29489, 126.396
5, 1200.00000, 126.814, -32.8877, 127.241, -153.045, 126.844, 86.7954, 2.01589E-006, 122.941, 61.7308, 121.075, 64.8602, 10.9546, 74.6291, -113.043, 4.34412, 126.83
5, 1800.00000, 126.567, -32.9527, 126.999, -153.111, 126.598, 86.7273, 2.02496E-006, 123.8, 61.9176, 121.011, 65.0427, 10.9519, 74.9183, -113.079, 4.35227, 126.52
5, 2400.00000, 126.032, -33.0926, 126.461, -153.248, 126.069, 86.5896, 2.01648E-006, 123.41, 61.9525, 120.982, 64.9445, 10.8253, 74.7617, -113.082, 4.32504, 126.751
5, 3000.00000, 126.299, -33.2073, 126.712, -153.357, 126.338, 86.4863, 1.97721E-006, 124.166, 61.1256, 120.946, 64.0245, 10.5596, 73.4642, -113.176, 4.25996, 127.54
6, 0.00000, 127.095, -32.7705, 127.527, -152.927, 127.129, 86.9133, 1.99432E-006, 125.057, 59.4271, 120.288, 62.3822, 10.7043, 72.2095, -113.393, 4.29132, 128.216
6, 600.00000, 126.122, -33.0206, 126.542, -153.181, 126.147, 86.6654, 1.98041E-006, 125.25, 59.2387, 120.252, 62.4184, 10.5015, 71.9347, -113.669, 4.26035, 128.469
6, 1200.00000, 126.298, -33.7285, 126.722, -153.698, 126.687, 86.052, 1.9726E-006, 124.167, 58.8872, 119.512, 62.1664, 9.95926, 71.7719, -114.386, 4.24969, 127.527
6, 1800.00000, 127.61, -33.0163, 128.029, -153.183, 127.618, 86.6675, 2.01284E-006, 124.761, 59.1601, 120.002, 62.7058, 10.3953, 72.2298, -114.047, 4.32914, 127.953
6, 2400.00000, 126.294, -34.1074, 126.718, -154.277, 126.302, 85.5706, 2.007E-006, 123.34, 59.6172, 119.083, 63.1829, 9.48385, 72.7938, -114.993, 4.32437, 126.717
6, 3000.00000, 126.714, -34.9163, 127.144, -155.099, 126.7, 84.7511, 2.06108E-006, 121.857, 60.5102, 118.165, 64.6009, 8.70901, 74.3461, -116.12, 4.44158, 125.261
7, 0.00000, 126.854, -35.0614, 127.281, -155.251, 126.827, 84.6033, 2.08139E-006, 121.637, 60.7468, 118.006, 65.1503, 8.55744, 74.8311, -116.446, 4.48487, 125.023
7, 600.00000, 126.942, -35.2165, 127.389, -155.242, 127.238, 84.5205, 2.12203E-006, 120.336, 61.2198, 117.727, 66.1551, 8.70352, 76.2021, -116.816, 4.57188, 123.645
7, 1200.00000, 127.379, -35.1042, 127.818, -155.139, 127.655, 84.6316, 2.14672E-006, 120.375, 61.2933, 117.801, 66.7265, 8.76279, 76.5886, -117.018, 4.62539, 123.742
7, 1800.00000, 126.907, -35.2325, 127.346, -155.275, 127.169, 84.4974, 2.1709E-006, 120.609, 61.8226, 117.742, 67.5694, 8.70434, 77.423, -117.239, 4.67088, 123.492
7, 2400.00000, 127.547, -35.0667, 127.999, -155.126, 127.781, 84.6475, 2.2263E-006, 117.854, 62.2175, 117.636, 68.6154, 9.02233, 78.8297, -117.473, 4.78942, 122.031
7, 3000.00000, 126.905, -35.2295, 127.384, -155.502, 126.734, 84.3587, 2.30561E-006, 114.795, 62.7381, 117.102, 70.3207, 9.33215, 81.3078, -118.238, 4.96416, 118.103
8, 0.00000, 126.926, -35.2297, 127.407, -155.517, 126.728, 84.3478, 2.35442E-006, 114.119, 63.3776, 117.055, 71.5917, 9.39725, 82.6486, -118.516, 5.06699, 117.6
8, 600.00000, 126.997, -35.2016, 127.441, -155.512, 126.739, 84.379, 2.36278E-006, 114.086, 62.3105, 117.164, 71.8499, 9.37232, 82.074, -119.221, 5.08163, 117.899
8, 1200.00000, 126.719, -35.255, 127.094, -155.605, 126.352, 84.3331, 2.3558E-006, 115.582, 60.1755, 117.35, 72.1034, 9.24606, 80.7365, -120.6, 5.07516, 118.515
8, 1800.00000, 126.791, -35.2328, 127.172, -155.6, 126.392, 84.3417, 2.39979E-006, 113.368, 60.2057, 117.208, 72.8283, 9.43433, 81.6622, -120.909, 5.15883, 117.32
8, 2400.00000, 127.378, -35.0538, 127.694, -155.465, 126.859, 84.5245, 2.40578E-006, 114.265, 57.6721, 117.373, 72.845, 9.55547, 80.3456, -122.301, 5.18519, 117.365
8, 3000.00000, 126.547, -35.2613, 126.836, -155.687, 125.992, 84.3201, 2.39128E-006, 113.754, 56.7036, 117.384, 72.6681, 9.40012, 79.5549, -122.926, 5.13647, 117.463
9, 0.00000, 126.906, -35.1362, 127.117, -155.615, 126.208, 84.4496, 2.39371E-006, 114.323, 53.6826, 117.571, 72.727, 9.47964, 78.0634, -124.756, 5.15562, 117.543
9, 600.00000, 126.881, -35.1387, 127.071, -155.63, 126.149, 84.4483, 2.40361E-006, 113.991, 53.2027, 117.638, 72.9995, 9.44557, 77.9362, -125.198, 5.16914, 117.751
9, 1200.00000, 126.25, -35.294, 126.411, -155.805, 125.47, 84.2945, 2.39378E-006, 114.276, 52.2047, 117.674, 73.0494, 9.33659, 77.3822, -125.957, 5.14661, 117.773
9, 1800.00000, 125.301, -35.5325, 125.439, -156.061, 124.483, 84.0565, 2.36777E-006, 114.62, 51.1033, 117.651, 72.7644, 9.21678, 76.606, -126.676, 5.09407, 117.505
9, 2400.00000, 125.482, -35.4881, 125.605, -156.023, 124.646, 84.1039, 2.37764E-006, 115.234, 51.1978, 117.78, 73.2847, 9.15161, 76.8215, -126.853, 5.12297, 118.122
9, 3000.00000, 127.058, -35.0765, 127.142, -155.614, 126.192, 84.5319, 2.40153E-006, 116.621, 50.8639, 118.206, 73.6549, 9.12706, 76.4318, -127.081, 5.16866, 120.167
10, 0.00000, 125.875, -35.3844, 125.942, -155.929, 124.997, 84.2279, 2.37082E-006, 117.677, 50.4748, 118.247, 73.545, 8.87606, 75.889, -127.49, 5.10734, 120.447
10, 600.00000, 126.097, -35.3207, 126.131, -155.883, 125.169, 84.296, 2.38323E-006, 118.169, 49.772, 118.421, 73.9497, 8.82944, 75.6784, -128.139, 5.1334, 121.045
10, 1200.00000, 127.328, -34.9947, 127.343, -155.565, 126.366, 84.6256, 2.41242E-006, 117.633, 49.2788, 118.579, 74.1953, 8.97494, 75.6423, -128.411, 5.19046, 121.565
10, 1800.00000, 128.319, -34.7496, 128.319, -155.321, 127.345, 84.8761, 2.44995E-006, 120.212, 49.9267, 118.799, 75.1787, 8.95978, 76.3565, -128.33, 5.27728, 122.753
10, 2400.00000, 125.535, -35.4713, 125.527, -156.053, 124.559, 84.1531, 2.39123E-006, 119.533, 49.5105, 118.684, 74.8252, 8.54278, 75.6595, -128.872, 5.14994, 122.254
10, 3000.00000, 125.839, -35.3907, 125.827, -155.968, 124.867, 84.238, 2.38729E-006, 119.609, 49.3925, 118.756, 74.6089, 8.54225, 75.3613, -128.824, 5.14075, 122.644
11, 0.00000, 125.702, -35.4163, 125.683, -155.994, 124.724, 84.2155, 2.35893E-006, 119.593, 48.4925, 118.755, 73.7707, 8.55373, 74.4068, -129.067, 5.08036, 122.491
11, 600.00000, 126.992, -35.0676, 126.955, -155.634, 126.018, 84.5798, 2.33396E-006, 120.67, 47.354, 118.999, 72.5054, 8.63294, 72.8098, -129.124, 5.02553, 123.638
11, 1200.00000, 125.094, -35.5547, 125.039, -156.118, 124.131, 84.1047, 2.24748E-006, 120.854, 46.0794, 119.076, 70.9311, 8.25617, 70.7124, -129.621, 4.83952, 124.04
11, 1800.00000, 125.441, -35.4508, 125.38, -156.004, 124.49, 84.2182, 2.20771E-006, 121.024, 44.9898, 119.165, 69.5191, 8.28319, 69.1715, -129.699, 4.75127, 124.413
11, 2400.00000, 125.43, -35.4401, 125.342, -155.977, 124.497, 84.252, 2.13277E-006, 122.827, 43.4093, 119.496, 67.4716, 8.06019, 66.496, -129.98, 4.59229, 126.109
11, 3000.00000, 126.094, -35.2533, 125.999, -155.785, 125.16, 84.4448, 2.11207E-006, 122.792, 42.3661, 119.564, 66.3718, 8.174, 65.3299, -130.134, 4.53891, 126.254
12, 0.00000, 128.569, -34.2629, 128.473, -154.78, 127.647, 85.4435, 2.1459E-006, 124.908, 42.7031, 120.142, 66.4668, 8.75926, 65.4529, -129.245, 4.61606, 127.97
12, 600.00000, 127.145, -34.6266, 127.008, -155.133, 126.239, 85.1063, 2.07583E-006, 127.477, 41.8284, 120.634, 65.2774, 8.12722, 63.2002, -129.726, 4.46999, 130.705
12, 1200.00000, 127.565, -34.8767, 127.411, -155.363, 126.69, 84.8761, 2.04758E-006, 129.316, 41.5356, 120.641, 64.2993, 7.5232, 61.7601, -129.871, 4.40907, 132.607
12, 1800.00000, 127.93, -34.7831, 127.749, -155.255, 127.07, 84.9905, 2.02563E-006, 131.622, 41.0343, 121.076, 63.4742, 7.22956, 60.2759, -129.942, 4.36383, 135.095
12, 2400.00000, 128.926, -34.5364, 128.739, -154.999, 128.079, 85.2453, 2.0481E-006, 132.898, 41.462, 121.285, 63.6764, 7.19117, 60.2901, -129.62, 4.40997, 136.486
12, 3000.00000, 128.454, -34.302, 128.301, -154.781, 127.589, 85.4536, 2.0774E-006, 130.564, 42.2127, 121.096, 64.8132, 7.90813, 62.2658, -129.14, 4.47047, 133.753
13, 0.00000, 128.767, -34.2217, 128.596, -154.694, 127.909, 85.5466, 2.06429E-006, 131.852, 41.8418, 121.37, 64.3266, 7.74423, 61.3503, -129.229, 4.44675, 135.273
13, 600.00000, 127.595, -34.5212, 127.474, -155.017, 126.715, 85.2101, 2.09543E-006, 127.541, 42.7695, 120.589, 65.6924, 8.17284, 63.889, -129.118, 4.51149, 130.865
13, 1200.00000, 128.516, -34.3037, 128.368, -154.79, 127.644, 85.4449, 2.13461E-006, 130.524, 43.72, 121.051, 66.597, 7.89663, 64.1212, -128.867, 4.5955, 133.74
13, 1800.00000, 127.476, -34.5888, 127.31, -155.067, 126.624, 85.1732, 2.13925E-006, 131.959, 44.7621, 121.32, 67.2964, 7.40268, 64.2317, -128.701, 4.61378, 135.778
13, 2400.00000, 127.317, -34.6477, 127.332, -155.207, 126.378, 84.9789, 2.40216E-006, 119.004, 49.6535, 119.029, 74.1025, 9.21888, 75.4803, -127.8, 5.17035, 122.639
13, 3000.00000, 127.147, -34.8949, 127.194, -155.283, 126.559, 84.8016, 2.48207E-006, 118.739, 52.0577, 118.75, 76.625, 9.17656, 78.5773, -127.438, 5.34597, 122.056
14, 0.00000, 127.154, -34.9252, 127.232, -155.51, 126.204, 84.654, 2.61077E-006, 117.441, 55.2208, 118.452, 80.1837, 9.18051, 82.9262, -127.06, 5.62132, 120.73
14, 600.00000, 127.199, -35.1285, 127.304, -155.698, 126.299, 84.447, 2.67153E-006, 118.128, 58.3289, 118.339, 82.3615, 8.83043, 85.5297, -126.348, 5.75411, 121.482
14, 1200.00000, 126.836, -35.2442, 126.956, -155.812, 125.953, 84.3249, 2.71474E-006, 117.889, 60.1294, 118.315, 83.8962, 8.71157, 87.3055, -126.021, 5.8404, 121.666
14, 1800.00000, 126.366, -35.4095, 126.471, -155.965, 125.516, 84.1731, 2.75485E-006, 121.252, 62.9372, 118.636, 86.2159, 8.2081, 89.0838, -125.581, 5.93148, 124.234
14, 2400.00000, 128.044, -34.8124, 128.166, -155.343, 127.241, 84.7769, 2.80082E-006, 122.375, 64.4475, 118.991, 86.7879, 8.49789, 90.0057, -124.587, 6.02754, 125.578
14, 3000.00000, 126.1, -35.5027, 126.235, -156.033, 125.319, 84.0807, 2.76E-006, 121.342, 64.8714, 118.602, 86.734, 8.06949, 90.1318, -124.794, 5.94584, 124.73
15, 0.00000, 126.57, -35.4113, 126.757, -155.894, 125.905, 84.1767, 2.7742E-006, 122.2, 67.6867, 118.612, 87.1138, 7.98389, 91.4839, -123.404, 5.97672, 125.736
15, 600.00000, 128.102, -35.0286, 128.296, -155.491, 127.475, 84.5684, 2.81682E-006, 123.798, 68.988, 118.83, 87.6625, 8.04726, 92.2015, -122.747, 6.06494, 127.082
15, 1200.00000, 128.028, -34.8778, 128.202, -155.323, 127.432, 84.7399, 2.79079E-006, 126.031, 69.0576, 119.249, 87.1215, 7.93634, 91.0819, -122.36, 6.00505, 129.191
15, 1800.00000, 127.914, -34.9227, 128.091, -155.343, 127.372, 84.7082, 2.7761E-006, 127.215, 70.025, 119.371, 86.9573, 7.70375, 90.8868, -121.831, 5.97853, 130.626
15, 2400.00000, 127.86, -34.7673, 128.064, -155.159, 127.387, 84.8689, 2.75345E-006, 128.098, 70.8243, 119.518, 86.2449, 7.80698, 90.7113, -120.944, 5.92416, 131.26
15, 3000.00000, 127.803, -34.6266, 128.139, -154.936, 127.548, 84.9999, 2.69476E-006, 127.226, 73.8097, 119.26, 84.4044, 8.12179, 91.8134, -118.44, 5.79754, 130.388
16, 0.00000, 126.748, -35.0925, 127.123, -155.376, 126.565, 84.5312, 2.65743E-006, 126.518, 74.9586, 118.866, 83.9914, 7.79616, 92.2542, -118.031, 5.72678, 129.897
16, 600.00000, 126.739, -35.4701, 127.174, -155.714, 126.66, 84.1497, 2.64984E-006, 126.135, 76.9636, 118.349, 83.7046, 7.44331, 93.386, -117.299, 5.70599, 129.425
16, 1200.00000, 126.41, -35.5598, 126.858, -155.795, 126.356, 84.0598, 2.63763E-006, 126.111, 77.2825, 118.284, 83.5076, 7.39083, 93.4573, -117.112, 5.67911, 129.376
16, 1800.00000, 126.495, -35.563, 126.978, -155.771, 126.512, 84.0564, 2.65561E-006, 126.535, 79.5258, 118.257, 84.2444, 7.30016, 95.0438, -116.388, 5.71989, 129.913
16, 2400.00000, 126.565, -35.5545, 127.042, -155.757, 126.596, 84.0714, 2.67358E-006, 127.443, 80.1501, 118.356, 84.6619, 7.17501, 95.294, -116.259, 5.7593, 130.911
16, 3000.00000, 126.9, -35.4858, 127.374, -155.674, 126.966, 84.15, 2.7301E-006, 128.896, 81.4794, 118.527, 85.4166, 7.00299, 95.9332, -115.872, 5.88815, 132.855
17, 0.00000, 127.154, -35.4323, 127.621, -155.597, 127.267, 84.2211, 2.73394E-006, 130.907, 82.1577, 118.714, 85.1661, 6.77147, 95.5015, -115.387, 5.89654, 134.819
17, 600.00000, 127.223, -35.4272, 127.655, -155.581, 127.351, 84.2482, 2.79347E-006, 134.477, 82.5137, 118.997, 85.3786, 6.42881, 94.8187, -115.219, 6.01174, 137.628
17, 1200.00000, 126.57, -35.6025, 126.999, -155.738, 126.737, 84.0853, 2.77116E-006, 135.279, 82.5282, 119.017, 84.6026, 6.15916, 93.9258, -114.917, 5.98818, 138.889
17, 1800.00000, 127.669, -35.3094, 128.072, -155.419, 127.883, 84.4074, 2.82701E-006, 138.936, 81.5001, 119.398, 82.7106, 5.97697, 91.3795, -114.196, 6.08276, 142.138
17, 2400.00000, 127.407, -35.3905, 127.792, -155.486, 127.652, 84.3415, 2.90971E-006, 141.15, 82.0659, 119.55, 82.8478, 5.66793, 91.0409, -113.905, 6.25831, 144.236
17, 3000.00000, 127.722, -34.9844, 127.73, -154.967, 128.024, 84.953, 3.12873E-006, 144.951, 83.7371, 120.311, 83.8088, 5.73306, 91.3541, -112.805, 6.73264, 148.171
18, 0.00000, 127.337, -34.0456, 127.648, -154.105, 127.656, 85.7366, 3.24395E-006, 147.687, 86.1247, 122.113, 86.1154, 6.52761, 92.4827, -111.36, 6.97135, 150.882
18, 600.00000, 126.607, -32.752, 126.903, -152.79, 126.982, 87.0473, 3.43355E-006, 151.277, 88.4628, 123.721, 87.6764, 7.56352, 93.6298, -109.43, 7.37578, 154.476
18, 1200.00000, 125.92, -32.3557, 126.208, -152.383, 126.317, 87.4525, 3.45399E-006, 152.476, 89.3355, 124.3, 88.141, 7.88366, 93.9304, -108.751, 7.42823, 155.711
18, 1800.00000, 125.82, -32.4373, 126.098, -152.457, 126.233, 87.3796, 3.49862E-006, 153.09, 93.3879, 124.365, 91.9547, 7.58026, 97.474, -108.873, 7.5368, 156.418
18, 2400.00000, 126.13, -32.3606, 126.41, -152.385, 126.531, 87.4532, 3.47411E-006, 152.877, 93.8132, 124.378, 92.5747, 7.65414, 98.1262, -108.993, 7.48157, 156.134
18, 3000.00000, 126.312, -32.3324, 126.59, -152.359, 126.706, 87.4816, 3.45168E-006, 152.775, 95.3047, 124.4, 94.1658, 7.62598, 99.6679, -109.151, 7.43317, 156.04
19, 0.00000, 126.085, -32.4479, 126.352, -152.467, 126.491, 87.3749, 3.46711E-006, 153.323, 99.4428, 124.435, 98.0778, 7.3291, 103.315, -109.327, 7.46531, 156.609
19, 600.00000, 126.132, -32.4577, 126.385, -152.471, 126.539, 87.3755, 3.45073E-006, 154.382, 100.9, 124.521, 99.4355, 7.15829, 104.319, -109.407, 7.3957, 157.187
19, 1200.00000, 125.934, -32.5082, 125.774, -152.414, 126.336, 87.5425, 3.38336E-006, 154.265, 100.024, 124.614, 98.2889, 7.20609, 103.185, -109.22, 7.28038, 157.513
19, 1800.00000, 125.983, -32.4817, 125.812, -152.387, 126.37, 87.576, 3.2672E-006, 154.501, 98.8068, 124.675, 97.1462, 7.1745, 101.799, -109.313, 7.03529, 157.617
19, 2400.00000, 126.055, -32.4413, 125.862, -152.339, 126.441, 87.6318, 3.19368E-006, 155.238, 96.7766, 124.821, 95.0003, 7.04818, 99.1413, -109.209, 6.87979, 158.537
19, 3000.00000, 126.017, -32.4424, 125.823, -152.341, 126.396, 87.6315, 3.15065E-006, 155.426, 96.086, 124.823, 94.3606, 7.05817, 98.4733, -109.258, 6.77093, 158.428
20, 0.00000, 125.893, -32.4668, 125.694, -152.363, 126.272, 87.6112, 3.09882E-006, 154.856, 95.3676, 124.845, 93.576, 7.00765, 97.5725, -109.226, 6.71975, 158.654
