hour, t(sec), V1, VAngle1, V2, VAngle2, I1, IAngle1, I2, IAngle2
0, 600.00000, 7608.11, 118.38, 0, 0, 0.715679, 92.8023, 0.715679, -87.1977
0, 1200.00000, 7545.12, 118.087, 0, 0, 0.716705, 92.0352, 0.716705, -87.9647
0, 1800.00000, 7565.69, 118.182, 0, 0, 0.727114, 92.6231, 0.727114, -87.3769
0, 2400.00000, 7561.88, 118.165, 0, 0, 0.729343, 92.6019, 0.729343, -87.3981
0, 3000.00000, 7572.25, 118.213, 0, 0, 0.728571, 92.6372, 0.728571, -87.3628
1, 0.00000, 7558.26, 118.148, 0, 0, 0.719659, 92.632, 0.719659, -87.368
1, 600.00000, 7565.92, 118.183, 0, 0, 0.709226, 92.7, 0.709226, -87.2999
1, 1200.00000, 7569.81, 118.201, 0, 0, 0.701027, 92.7472, 0.701027, -87.2528
1, 1800.00000, 7581.27, 118.254, 0, 0, 0.688336, 92.837, 0.688336, -87.163
1, 2400.00000, 7564.57, 118.176, 0, 0, 0.674523, 92.8442, 0.674523, -87.1558
1, 3000.00000, 7581.64, 118.256, 0, 0, 0.663193, 92.945, 0.663193, -87.0549
2, 0.00000, 7560.05, 118.155, 0, 0, 0.662392, 92.8822, 0.662392, -87.1178
2, 600.00000, 7589.15, 118.291, 0, 0, 0.665869, 92.9566, 0.665869, -87.0433
2, 1200.00000, 7572.28, 118.212, 0, 0, 0.662844, 92.9178, 0.662844, -87.0821
2, 1800.00000, 7590.13, 118.295, 0, 0, 0.663508, 92.9697, 0.663508, -87.0303
2, 2400.00000, 7564.71, 118.177, 0, 0, 0.66735, 92.8753, 0.66735, -87.1246
2, 3000.00000, 7578.76, 118.242, 0, 0, 0.669098, 92.9118, 0.669098, -87.0882
3, 0.00000, 7575.02, 118.225, 0, 0, 0.668926, 92.9, 0.668926, -87.0999
3, 600.00000, 7585.34, 118.273, 0, 0, 0.669337, 92.9307, 0.669337, -87.0692
3, 1200.00000, 7568.22, 118.194, 0, 0, 0.686618, 92.8038, 0.686617, -87.1962
3, 1800.00000, 7580.23, 118.25, 0, 0, 0.705012, 92.7623, 0.705012, -87.2376
3, 2400.00000, 7571.64, 118.21, 0, 0, 0.717807, 92.6814, 0.717807, -87.3186
3, 3000.00000, 7581.64, 118.257, 0, 0, 0.740881, 92.6141, 0.740881, -87.3858
4, 0.00000, 7560.56, 118.16, 0, 0, 0.769784, 91.8564, 0.769783, -88.1436
4, 600.00000, 7581.81, 118.26, 0, 0, 0.796199, 91.8223, 0.796199, -88.1776
4, 1200.00000, 7564.67, 118.18, 0, 0, 0.811272, 91.6852, 0.811272, -88.3147
4, 1800.00000, 7576.35, 118.236, 0, 0, 0.848599, 91.564, 0.848599, -88.436
4, 2400.00000, 7566.89, 118.192, 0, 0, 0.853639, 91.5029, 0.853638, -88.4971
4, 3000.00000, 7564.02, 118.178, 0, 0, 0.855731, 91.4819, 0.85573, -88.5181
5, 0.00000, 7566.72, 118.191, 0, 0, 0.862978, 91.4599, 0.862977, -88.54
5, 600.00000, 7567.56, 118.195, 0, 0, 0.870059, 91.4315, 0.870059, -88.5685
5, 1200.00000, 7574.97, 118.23, 0, 0, 0.875382, 91.4375, 0.875382, -88.5625
5, 1800.00000, 7562.69, 118.173, 0, 0, 0.880131, 91.3666, 0.88013, -88.6333
5, 2400.00000, 7535.56, 118.045, 0, 0, 0.873074, 91.2883, 0.873074, -88.7117
5, 3000.00000, 7509.64, 117.923, 0, 0, 0.847561, 91.2981, 0.847561, -88.7019
6, 0.00000, 7588.5, 118.293, 0, 0, 0.851984, 91.5981, 0.851984, -88.4019
6, 600.00000, 7538.83, 118.061, 0, 0, 0.844228, 91.4323, 0.844227, -88.5677
6, 1200.00000, 7412.08, 117.511, 0, 0, 0.833923, 90.3947, 0.833923, -89.6053
6, 1800.00000, 7536.85, 118.052, 0, 0, 0.851062, 91.3931, 0.851062, -88.6068
6, 2400.00000, 7324.09, 117.103, 0, 0, 0.841154, 89.9039, 0.841153, -90.096
6, 3000.00000, 7172.1, 116.592, 0, 0, 0.846233, 89.282, 0.846233, -90.718
7, 0.00000, 7148.39, 116.492, 0, 0, 0.850818, 89.1462, 0.850818, -90.8537
7, 600.00000, 7137.97, 116.449, 0, 0, 0.875663, 88.9733, 0.875662, -91.0266
7, 1200.00000, 7156.37, 116.527, 0, 0, 0.884707, 89.0166, 0.884707, -90.9834
7, 1800.00000, 7136.86, 116.445, 0, 0, 0.895115, 88.8723, 0.895114, -91.1277
7, 2400.00000, 7164.21, 116.561, 0, 0, 0.930502, 88.8288, 0.930502, -91.1711
7, 3000.00000, 7123, 116.389, 0, 0, 0.995644, 88.3085, 0.995644, -91.6914
8, 0.00000, 7124.35, 116.395, 0, 0, 1.01939, 88.1982, 1.01939, -91.8017
8, 600.00000, 7126.05, 116.402, 0, 0, 1.01967, 88.2062, 1.01967, -91.7937
8, 1200.00000, 7112.02, 116.344, 0, 0, 1.01318, 88.1698, 1.01318, -91.8302
8, 1800.00000, 7115.02, 116.357, 0, 0, 1.03923, 88.0555, 1.03923, -91.9444
8, 2400.00000, 7136.82, 116.449, 0, 0, 1.04381, 88.1396, 1.04381, -91.8603
8, 3000.00000, 7101.07, 116.299, 0, 0, 1.0338, 88.0162, 1.0338, -91.9838
9, 0.00000, 7112.79, 116.349, 0, 0, 1.03674, 88.0574, 1.03674, -91.9426
9, 600.00000, 7111.14, 116.342, 0, 0, 1.03753, 88.0452, 1.03753, -91.9547
9, 1200.00000, 7083.85, 116.227, 0, 0, 1.03315, 87.9353, 1.03315, -92.0647
9, 1800.00000, 7043.73, 116.059, 0, 0, 1.02565, 87.7766, 1.02565, -92.2234
9, 2400.00000, 7051.07, 116.09, 0, 0, 1.02578, 87.8097, 1.02578, -92.1903
9, 3000.00000, 7115.68, 116.361, 0, 0, 1.01589, 88.1759, 1.01589, -91.8241
10, 0.00000, 7066.18, 116.153, 0, 0, 1.00175, 88.0059, 1.00175, -91.9941
10, 600.00000, 7074.44, 116.188, 0, 0, 1.00092, 88.0481, 1.00092, -91.9519
10, 1200.00000, 7125.05, 116.401, 0, 0, 1.00667, 88.2676, 1.00667, -91.7324
10, 1800.00000, 7167.07, 116.577, 0, 0, 1.01105, 88.4519, 1.01105, -91.5481
10, 2400.00000, 7050.74, 116.089, 0, 0, 0.991938, 87.9765, 0.991937, -92.0235
10, 3000.00000, 7063.12, 116.141, 0, 0, 0.986423, 88.0643, 0.986423, -91.9357
11, 0.00000, 7056.71, 116.114, 0, 0, 0.976949, 88.0811, 0.976948, -91.9188
11, 600.00000, 7109.07, 116.333, 0, 0, 0.955987, 88.4399, 0.955987, -91.5601
11, 1200.00000, 7029.8, 115.999, 0, 0, 0.917682, 88.2496, 0.917682, -91.7504
11, 1800.00000, 7043.09, 116.056, 0, 0, 0.898223, 88.4072, 0.898222, -91.5928
11, 2400.00000, 7041.27, 116.047, 0, 0, 0.852926, 88.6258, 0.852925, -91.3742
11, 3000.00000, 7067.63, 116.158, 0, 0, 0.842394, 88.804, 0.842394, -91.196
12, 0.00000, 7231.77, 116.847, 0, 0, 0.851751, 89.5446, 0.851751, -90.4554
12, 600.00000, 7169.22, 116.583, 0, 0, 0.796197, 89.5193, 0.796197, -90.4807
12, 1200.00000, 7127.66, 116.407, 0, 0, 0.754745, 89.527, 0.754744, -90.4729
12, 1800.00000, 7142.35, 116.469, 0, 0, 0.719847, 89.7692, 0.719846, -90.2308
12, 2400.00000, 7184.71, 116.647, 0, 0, 0.71223, 90.0059, 0.71223, -89.9941
12, 3000.00000, 7225.98, 116.821, 0, 0, 0.763968, 89.9459, 0.763968, -90.0541
13, 0.00000, 7239.2, 116.877, 0, 0, 0.743002, 90.1114, 0.743002, -89.8886
13, 600.00000, 7189.5, 116.668, 0, 0, 0.802003, 89.5862, 0.802003, -90.4138
13, 1200.00000, 7229.98, 116.838, 0, 0, 0.784611, 89.864, 0.784611, -90.1359
13, 1800.00000, 7185.68, 116.651, 0, 0, 0.761513, 89.7677, 0.761513, -90.2323
13, 2400.00000, 7184.14, 116.649, 0, 0, 1.00506, 88.5645, 1.00506, -91.4354
13, 3000.00000, 7164.1, 116.565, 0, 0, 1.03855, 88.3023, 1.03855, -91.6977
14, 0.00000, 7152.21, 116.516, 0, 0, 1.10066, 87.9396, 1.10066, -92.0603
14, 600.00000, 7127.59, 116.413, 0, 0, 1.11023, 87.7703, 1.11023, -92.2297
14, 1200.00000, 7113.98, 116.356, 0, 0, 1.1237, 87.6364, 1.1237, -92.3636
14, 1800.00000, 7096.58, 116.282, 0, 0, 1.11017, 87.6163, 1.11017, -92.3837
14, 2400.00000, 7198.36, 116.71, 0, 0, 1.11917, 88.0777, 1.11917, -91.9223
14, 3000.00000, 7087.44, 116.244, 0, 0, 1.10649, 87.5888, 1.10649, -92.4112
15, 0.00000, 7109.84, 116.337, 0, 0, 1.09981, 87.7324, 1.09981, -92.2676
15, 600.00000, 7175.43, 116.613, 0, 0, 1.09926, 88.0601, 1.09926, -91.9399
15, 1200.00000, 7202.26, 116.725, 0, 0, 1.06835, 88.3432, 1.06835, -91.6568
15, 1800.00000, 7198.25, 116.707, 0, 0, 1.044, 88.4418, 1.044, -91.5582
15, 2400.00000, 7227.55, 116.83, 0, 0, 1.03349, 88.6367, 1.03348, -91.3633
15, 3000.00000, 7260.38, 116.968, 0, 0, 1.0321, 88.8039, 1.0321, -91.1961
16, 0.00000, 7184.73, 116.648, 0, 0, 1.01812, 88.5004, 1.01812, -91.4996
16, 600.00000, 7127.38, 116.407, 0, 0, 1.00703, 88.2732, 1.00703, -91.7268
16, 1200.00000, 7114.05, 116.351, 0, 0, 1.00282, 88.2295, 1.00282, -91.7705
16, 1800.00000, 7119.82, 116.375, 0, 0, 1.00265, 88.2577, 1.00264, -91.7423
16, 2400.00000, 7123.23, 116.389, 0, 0, 0.995678, 88.3086, 0.995677, -91.6913
16, 3000.00000, 7138.35, 116.452, 0, 0, 0.98941, 88.4132, 0.98941, -91.5868
17, 0.00000, 7149.61, 116.499, 0, 0, 0.961997, 88.6028, 0.961996, -91.3972
17, 600.00000, 7152.47, 116.51, 0, 0, 0.935339, 88.7477, 0.935339, -91.2522
17, 1200.00000, 7125.08, 116.394, 0, 0, 0.909755, 88.7413, 0.909755, -91.2587
17, 1800.00000, 7170.25, 116.583, 0, 0, 0.870157, 89.1539, 0.870157, -90.8461
17, 2400.00000, 7159.44, 116.537, 0, 0, 0.854461, 89.1792, 0.854461, -90.8208
17, 3000.00000, 7250.16, 116.919, 0, 0, 0.854137, 89.6153, 0.854136, -90.3847
18, 0.00000, 7430.94, 117.596, 0, 0, 0.868397, 90.3255, 0.868396, -89.6744
18, 600.00000, 7708.69, 118.843, 0, 0, 0.880131, 92.4173, 0.88013, -87.5827
18, 1200.00000, 7798.7, 119.25, 0, 0, 0.868086, 93.2485, 0.868085, -86.7515
18, 1800.00000, 7797.68, 119.245, 0, 0, 0.859573, 93.2786, 0.859573, -86.7213
18, 2400.00000, 7814.69, 119.322, 0, 0, 0.860965, 93.314, 0.860964, -86.686
18, 3000.00000, 7826.04, 119.372, 0, 0, 0.85744, 93.3545, 0.85744, -86.6454
19, 0.00000, 7818.42, 119.338, 0, 0, 0.843996, 93.3879, 0.843996, -86.6121
19, 600.00000, 7822.45, 119.356, 0, 0, 0.819737, 93.4902, 0.819736, -86.5097
19, 1200.00000, 7832.21, 119.399, 0, 0, 0.800391, 93.5871, 0.800391, -86.4129
19, 1800.00000, 7833.56, 119.405, 0, 0, 0.771229, 93.7018, 0.771228, -86.2982
19, 2400.00000, 7835.1, 119.411, 0, 0, 0.731113, 93.8586, 0.731113, -86.1413
19, 3000.00000, 7832.38, 119.399, 0, 0, 0.722572, 93.8852, 0.722572, -86.1148
20, 0.00000, 7824.96, 119.366, 0, 0, 0.711554, 93.9104, 0.711554, -86.0896
20, 600.00000, 7831.72, 119.396, 0, 0, 0.703102, 93.9581, 0.703102, -86.0418
20, 1200.00000, 7825.27, 119.367, 0, 0, 0.689659, 93.9949, 0.689659, -86.005
20, 1800.00000, 7829.46, 119.386, 0, 0, 0.732275, 93.8414, 0.732274, -86.1585
20, 2400.00000, 7823.79, 119.361, 0, 0, 0.730986, 93.8332, 0.730986, -86.1668
20, 3000.00000, 7822.03, 119.353, 0, 0, 0.722474, 93.8619, 0.722473, -86.138
21, 0.00000, 7842.13, 119.443, 0, 0, 0.711718, 93.949, 0.711717, -86.051
21, 600.00000, 7838.44, 119.426, 0, 0, 0.703166, 93.9734, 0.703166, -86.0265
21, 1200.00000, 7847.19, 119.465, 0, 0, 0.689864, 94.0442, 0.689864, -85.9558
21, 1800.00000, 7844.43, 119.453, 0, 0, 0.676452, 94.0893, 0.676451, -85.9106
21, 2400.00000, 7837.8, 119.423, 0, 0, 0.66422, 94.1215, 0.66422, -85.8785
21, 3000.00000, 7839.67, 119.432, 0, 0, 0.664237, 94.1257, 0.664237, -85.8742
22, 0.00000, 7834.85, 119.41, 0, 0, 0.666627, 94.1058, 0.666627, -85.8941
22, 600.00000, 7847.26, 119.466, 0, 0, 0.664308, 94.1426, 0.664307, -85.8573
22, 1200.00000, 7843.49, 119.449, 0, 0, 0.664272, 94.1343, 0.664272, -85.8657
22, 1800.00000, 7834.88, 119.411, 0, 0, 0.669062, 94.0967, 0.669061, -85.9033
22, 2400.00000, 7847.24, 119.466, 0, 0, 0.670392, 94.1194, 0.670392, -85.8805
22, 3000.00000, 7844.42, 119.453, 0, 0, 0.670358, 94.1129, 0.670357, -85.887
23, 0.00000, 7841.88, 119.442, 0, 0, 0.65452, 94.168, 0.654519, -85.8319
23, 600.00000, 7842.76, 119.446, 0, 0, 0.665483, 94.1281, 0.665482, -85.8718
23, 1200.00000, 7775.39, 119.144, 0, 0, 0.675836, 93.936, 0.675836, -86.0639
23, 1800.00000, 7759.5, 119.072, 0, 0, 0.663539, 93.9474, 0.663539, -86.0526
23, 2400.00000, 7753.51, 119.045, 0, 0, 0.689028, 93.8351, 0.689028, -86.1649
23, 3000.00000, 7758.45, 119.068, 0, 0, 0.675694, 93.8983, 0.675694, -86.1016
24, 0.00000, 7746.33, 119.013, 0, 0, 0.663432, 93.9182, 0.663432, -86.0817
