hour, t(sec), V1, VAngle1, V2, VAngle2, V3, VAngle3, I1, IAngle1, I2, IAngle2, I3, IAngle3
0, 600.00000, 7795.73, -1.0169, 7791.64, -120.991, 7789.08, 118.965, 117.314, -23.6005, 117.414, -143.562, 118.146, 96.355
0, 1200.00000, 7764.22, -1.20042, 7760.16, -121.174, 7757.55, 118.782, 138.389, -23.7246, 138.486, -143.696, 139.213, 96.2334
0, 1800.00000, 7774.63, -1.14009, 7770.46, -121.113, 7767.87, 118.842, 131.467, -23.6817, 131.573, -143.65, 132.31, 96.2738
0, 2400.00000, 7772.73, -1.15111, 7768.56, -121.124, 7765.96, 118.831, 132.739, -23.6918, 132.84, -143.661, 133.58, 96.2658
0, 3000.00000, 7777.92, -1.12095, 7773.75, -121.094, 7771.15, 118.861, 129.267, -23.6691, 129.373, -143.636, 130.112, 96.2859
1, 0.00000, 7770.82, -1.1619, 7766.7, -121.135, 7764.14, 118.82, 133.989, -23.6991, 134.088, -143.669, 134.818, 96.2601
1, 600.00000, 7774.55, -1.13991, 7770.49, -121.114, 7767.97, 118.842, 131.468, -23.6824, 131.567, -143.651, 132.289, 96.2768
1, 1200.00000, 7776.41, -1.1288, 7772.39, -121.103, 7769.9, 118.853, 130.199, -23.6748, 130.297, -143.643, 131.011, 96.2847
1, 1800.00000, 7782.02, -1.09574, 7778.07, -121.071, 7775.63, 118.887, 126.411, -23.6525, 126.507, -143.619, 127.21, 96.3075
1, 2400.00000, 7773.51, -1.14476, 7769.64, -121.12, 7767.26, 118.838, 132.061, -23.686, 132.153, -143.656, 132.842, 96.2771
1, 3000.00000, 7781.93, -1.09534, 7778.13, -121.071, 7775.79, 118.888, 126.394, -23.6535, 126.482, -143.621, 127.162, 96.3105
2, 0.00000, 7771.12, -1.15827, 7767.32, -121.134, 7764.99, 118.825, 133.626, -23.6952, 133.715, -143.666, 134.392, 96.2698
2, 600.00000, 7785.72, -1.07338, 7781.91, -121.049, 7779.55, 118.91, 123.865, -23.6384, 123.957, -143.605, 124.638, 96.3236
2, 1200.00000, 7777.25, -1.12259, 7773.45, -121.098, 7771.11, 118.86, 129.525, -23.6713, 129.616, -143.64, 130.293, 96.2921
2, 1800.00000, 7786.19, -1.0706, 7782.38, -121.046, 7780.04, 118.912, 123.548, -23.6366, 123.639, -143.603, 124.318, 96.3256
2, 2400.00000, 7773.51, -1.14452, 7769.68, -121.12, 7767.33, 118.838, 132.041, -23.6856, 132.134, -143.656, 132.814, 96.2772
2, 3000.00000, 7780.56, -1.10359, 7776.72, -121.079, 7774.35, 118.879, 127.333, -23.6577, 127.426, -143.626, 128.109, 96.3044
3, 0.00000, 7778.69, -1.11443, 7774.85, -121.09, 7772.49, 118.868, 128.582, -23.6658, 128.675, -143.634, 129.357, 96.2964
3, 600.00000, 7783.86, -1.0844, 7780.02, -121.06, 7777.65, 118.898, 125.127, -23.645, 125.22, -143.612, 125.904, 96.3164
3, 1200.00000, 7775.48, -1.13377, 7771.53, -121.109, 7769.1, 118.849, 130.784, -23.6777, 130.884, -143.647, 131.581, 96.2813
3, 1800.00000, 7781.69, -1.09828, 7777.63, -121.073, 7775.12, 118.884, 126.683, -23.6531, 126.793, -143.621, 127.504, 96.3005
3, 2400.00000, 7777.53, -1.12297, 7773.39, -121.097, 7770.83, 118.859, 129.505, -23.6688, 129.621, -143.637, 130.341, 96.2822
3, 3000.00000, 7782.78, -1.0932, 7778.51, -121.066, 7775.86, 118.888, 126.057, -23.6481, 126.183, -143.615, 126.922, 96.2971
4, 0.00000, 7772.55, -1.15399, 7768.15, -121.125, 7765.32, 118.828, 132.98, -23.6874, 133.117, -143.657, 133.878, 96.2515
4, 600.00000, 7783.47, -1.09136, 7778.92, -121.062, 7775.98, 118.89, 125.752, -23.6446, 125.899, -143.611, 126.683, 96.2862
4, 1200.00000, 7775.06, -1.14088, 7770.42, -121.111, 7767.42, 118.84, 131.424, -23.6772, 131.577, -143.646, 132.373, 96.2526
4, 1800.00000, 7781.3, -1.10585, 7776.45, -121.074, 7773.29, 118.874, 127.353, -23.6526, 127.52, -143.619, 128.347, 96.268
4, 2400.00000, 7776.62, -1.13329, 7771.74, -121.102, 7768.56, 118.847, 130.501, -23.6714, 130.669, -143.639, 131.5, 96.2501
4, 3000.00000, 7775.21, -1.1416, 7770.31, -121.11, 7767.13, 118.838, 131.452, -23.6766, 131.621, -143.644, 132.454, 96.2452
5, 0.00000, 7776.63, -1.13356, 7771.7, -121.101, 7768.48, 118.846, 130.519, -23.6709, 130.688, -143.638, 131.529, 96.2495
5, 600.00000, 7777.13, -1.13091, 7772.16, -121.098, 7768.91, 118.849, 130.206, -23.669, 130.378, -143.636, 131.225, 96.25
5, 1200.00000, 7780.89, -1.1092, 7775.9, -121.077, 7772.63, 118.87, 127.703, -23.6542, 127.876, -143.62, 128.729, 96.2632
5, 1800.00000, 7774.79, -1.1448, 7769.77, -121.112, 7766.48, 118.835, 131.797, -23.6808, 131.966, -143.648, 132.823, 96.2393
5, 2400.00000, 7761.12, -1.22418, 7756.14, -121.191, 7752.89, 118.756, 140.918, -23.7341, 141.084, -143.707, 141.929, 96.1909
5, 3000.00000, 7747.87, -1.30055, 7743.03, -121.269, 7739.89, 118.68, 149.706, -23.7852, 149.864, -143.761, 150.685, 96.1472
6, 0.00000, 7787.43, -1.07017, 7782.56, -121.039, 7779.37, 118.91, 123.258, -23.6329, 123.429, -143.595, 124.264, 96.2846
6, 600.00000, 7762.46, -1.21522, 7757.62, -121.184, 7754.5, 118.765, 139.933, -23.7313, 140.099, -143.705, 140.913, 96.1943
6, 1200.00000, 7698.41, -1.5605, 7693.67, -121.528, 7690.53, 118.421, 181.429, -24.4731, 181.59, -144.458, 182.381, 95.4669
6, 1800.00000, 7761.55, -1.22081, 7756.67, -121.189, 7753.52, 118.759, 140.565, -23.7344, 140.734, -143.709, 141.553, 96.1898
6, 2400.00000, 7654.15, -1.81089, 7649.37, -121.778, 7646.19, 118.171, 210.578, -24.7095, 210.742, -144.7, 211.53, 95.2356
6, 3000.00000, 7575.93, -2.13997, 7571.09, -122.106, 7567.92, 117.842, 257.078, -26.4744, 257.254, -146.473, 258.014, 93.4783
7, 0.00000, 7563.89, -2.20114, 7559.02, -122.167, 7555.84, 117.781, 264.682, -26.5755, 264.86, -146.576, 265.619, 93.3774
7, 600.00000, 7558.84, -2.22745, 7553.83, -122.192, 7550.54, 117.754, 267.927, -26.6192, 268.114, -146.621, 268.888, 93.3313
7, 1200.00000, 7568.32, -2.17984, 7563.25, -122.144, 7559.93, 117.802, 261.981, -26.5398, 262.172, -146.542, 262.95, 93.4083
7, 1800.00000, 7558.48, -2.23001, 7553.35, -122.194, 7550, 117.752, 268.209, -26.6217, 268.403, -146.625, 269.184, 93.3259
7, 2400.00000, 7572.81, -2.15873, 7567.47, -122.121, 7563.97, 117.822, 259.278, -26.5023, 259.485, -146.506, 260.294, 93.4396
7, 3000.00000, 7552.48, -2.26368, 7546.78, -122.223, 7543, 117.717, 272.25, -26.6747, 272.482, -146.682, 273.328, 93.2614
8, 0.00000, 7553.43, -2.2598, 7547.59, -122.218, 7543.71, 117.72, 271.723, -26.6667, 271.963, -146.675, 272.823, 93.2661
8, 600.00000, 7554.29, -2.25562, 7548.43, -122.214, 7544.58, 117.725, 271.185, -26.6573, 271.43, -146.669, 272.274, 93.2728
8, 1200.00000, 7547.05, -2.29203, 7541.17, -122.25, 7537.41, 117.689, 275.728, -26.7162, 275.98, -146.735, 276.785, 93.2106
8, 1800.00000, 7548.86, -2.28381, 7542.83, -122.241, 7538.96, 117.697, 274.659, -26.7016, 274.921, -146.722, 275.741, 93.2214
8, 2400.00000, 7560.03, -2.22792, 7553.92, -122.184, 7550.09, 117.753, 267.66, -26.6052, 267.934, -146.633, 268.725, 93.31
8, 3000.00000, 7541.67, -2.32018, 7535.6, -122.277, 7531.83, 117.661, 279.179, -26.7572, 279.453, -146.787, 280.222, 93.1603
9, 0.00000, 7547.67, -2.29022, 7541.52, -122.246, 7537.81, 117.692, 275.421, -26.7057, 275.71, -146.744, 276.439, 93.2039
9, 600.00000, 7546.83, -2.29451, 7540.66, -122.25, 7536.97, 117.688, 275.952, -26.7122, 276.244, -146.752, 276.964, 93.1959
9, 1200.00000, 7532.84, -2.36476, 7526.67, -122.321, 7523.03, 117.618, 284.73, -26.8277, 285.023, -146.87, 285.724, 93.0814
9, 1800.00000, 7512.25, -2.46732, 7506.11, -122.423, 7502.51, 117.516, 297.604, -26.9999, 297.898, -147.043, 298.58, 92.9118
9, 2400.00000, 7516, -2.44846, 7509.85, -122.404, 7506.26, 117.535, 295.251, -26.9706, 295.546, -147.015, 296.222, 92.9398
9, 3000.00000, 7548.9, -2.28374, 7542.77, -122.24, 7539.27, 117.699, 274.612, -26.69, 274.908, -146.739, 275.567, 93.2132
10, 0.00000, 7523.46, -2.41085, 7517.41, -122.368, 7513.97, 117.573, 290.535, -26.9027, 290.826, -146.951, 291.467, 93.0064
10, 600.00000, 7527.67, -2.38967, 7521.6, -122.346, 7518.19, 117.594, 287.893, -26.869, 288.188, -146.921, 288.814, 93.037
10, 1200.00000, 7553.57, -2.26012, 7547.44, -122.217, 7544.04, 117.724, 271.659, -26.6477, 271.961, -146.704, 272.581, 93.2505
10, 1800.00000, 7575.05, -2.15186, 7568.88, -122.108, 7565.48, 117.832, 258.152, -26.4638, 258.456, -146.524, 259.076, 93.4281
10, 2400.00000, 7515.44, -2.45027, 7509.4, -122.407, 7506.06, 117.534, 295.519, -26.9723, 295.812, -147.026, 296.414, 92.935
10, 3000.00000, 7521.71, -2.41887, 7515.7, -122.376, 7512.38, 117.565, 291.582, -26.9191, 291.874, -146.973, 292.473, 92.9875
11, 0.00000, 7518.34, -2.43548, 7512.37, -122.393, 7509.1, 117.549, 293.674, -26.9461, 293.965, -147, 294.553, 92.9616
11, 600.00000, 7544.87, -2.30218, 7539, -122.261, 7535.84, 117.682, 276.995, -26.7201, 277.283, -146.777, 277.853, 93.1834
11, 1200.00000, 7503.94, -2.50545, 7498.3, -122.465, 7495.29, 117.48, 302.529, -27.0609, 302.803, -147.113, 303.343, 92.8542
11, 1800.00000, 7510.53, -2.47146, 7504.99, -122.432, 7502.06, 117.514, 298.338, -27.0117, 298.607, -147.064, 299.133, 92.9039
11, 2400.00000, 7509.11, -2.47704, 7503.83, -122.44, 7501.09, 117.509, 299.105, -27.0216, 299.36, -147.073, 299.851, 92.8981
11, 3000.00000, 7522.49, -2.41004, 7517.25, -122.374, 7514.57, 117.576, 290.711, -26.9098, 290.966, -146.963, 291.446, 93.008
12, 0.00000, 7606.29, -1.98738, 7600.97, -121.951, 7598.28, 117.998, 237.978, -26.1909, 238.241, -146.255, 238.729, 93.7074
12, 600.00000, 7573.85, -2.15079, 7568.85, -122.117, 7566.39, 117.836, 258.338, -26.4669, 258.58, -146.526, 259.023, 93.4451
12, 1200.00000, 7552.21, -2.25856, 7547.45, -122.226, 7545.15, 117.729, 271.847, -26.6519, 272.072, -146.707, 272.488, 93.2693
12, 1800.00000, 7559.33, -2.2213, 7554.77, -122.19, 7552.62, 117.767, 267.265, -26.593, 267.478, -146.648, 267.866, 93.3302
12, 2400.00000, 7580.84, -2.11218, 7576.32, -122.082, 7574.2, 117.876, 253.687, -26.4097, 253.897, -146.468, 254.281, 93.5104
12, 3000.00000, 7602.4, -2.00413, 7597.58, -121.972, 7595.26, 117.983, 240.195, -26.2248, 240.424, -146.286, 240.849, 93.6853
13, 0.00000, 7608.91, -1.97023, 7604.2, -121.939, 7601.97, 118.017, 236.022, -26.1673, 236.244, -146.23, 236.651, 93.7432
13, 600.00000, 7584.24, -2.09802, 7579.22, -122.064, 7576.72, 117.889, 251.786, -26.381, 252.027, -146.44, 252.483, 93.5296
13, 1200.00000, 7604.66, -1.9934, 7599.72, -121.96, 7597.32, 117.993, 238.829, -26.2046, 239.062, -146.267, 239.504, 93.7032
13, 1800.00000, 7581.85, -2.10889, 7577.07, -122.076, 7574.75, 117.878, 253.189, -26.3994, 253.408, -146.458, 253.836, 93.5172
13, 2400.00000, 7583.69, -2.10779, 7577.56, -122.065, 7574.17, 117.876, 252.685, -26.3904, 252.986, -146.45, 253.611, 93.5013
13, 3000.00000, 7573.83, -2.1589, 7567.54, -122.114, 7563.98, 117.824, 258.992, -26.4762, 259.298, -146.534, 259.954, 93.4158
14, 0.00000, 7568.43, -2.18836, 7561.82, -122.141, 7557.97, 117.794, 262.558, -26.524, 262.879, -146.581, 263.588, 93.3639
14, 600.00000, 7555.97, -2.25142, 7549.35, -122.204, 7545.43, 117.731, 270.417, -26.6321, 270.732, -146.685, 271.465, 93.2613
14, 1200.00000, 7549.17, -2.28608, 7542.49, -122.238, 7538.49, 117.696, 274.728, -26.6911, 275.042, -146.742, 275.792, 93.2039
14, 1800.00000, 7540.12, -2.33092, 7533.54, -122.283, 7529.59, 117.651, 280.365, -26.7684, 280.666, -146.818, 281.412, 93.1319
14, 2400.00000, 7592.13, -2.06842, 7585.5, -122.021, 7581.52, 117.913, 247.638, -26.3251, 247.939, -146.377, 248.711, 93.5641
14, 3000.00000, 7535.42, -2.35423, 7528.89, -122.306, 7524.92, 117.627, 283.301, -26.8098, 283.594, -146.855, 284.356, 93.095
15, 0.00000, 7546.79, -2.29675, 7540.35, -122.25, 7536.36, 117.684, 276.137, -26.7155, 276.416, -146.755, 277.208, 93.1931
15, 600.00000, 7580.24, -2.12781, 7573.81, -122.081, 7569.82, 117.853, 255.079, -26.4311, 255.354, -146.47, 256.16, 93.4727
15, 1200.00000, 7593.57, -2.05891, 7587.31, -122.014, 7583.46, 117.922, 246.575, -26.3166, 246.837, -146.355, 247.626, 93.5886
15, 1800.00000, 7591.27, -2.06969, 7585.16, -122.026, 7581.41, 117.911, 247.961, -26.337, 248.209, -146.373, 248.991, 93.5739
15, 2400.00000, 7606.08, -1.99364, 7600.05, -121.951, 7596.31, 117.987, 238.56, -26.2113, 238.799, -146.243, 239.594, 93.701
15, 3000.00000, 7622.78, -1.90751, 7616.85, -121.865, 7613.01, 118.072, 227.945, -26.0733, 228.168, -146.089, 229.029, 93.8474
16, 0.00000, 7584.15, -2.10438, 7578.33, -122.062, 7574.51, 117.876, 252.365, -26.4058, 252.579, -146.418, 253.441, 93.526
16, 600.00000, 7554.79, -2.25224, 7549.09, -122.211, 7545.25, 117.728, 270.82, -26.6578, 271.023, -146.664, 271.9, 93.2834
16, 1200.00000, 7547.95, -2.28654, 7542.28, -122.245, 7538.45, 117.693, 275.11, -26.7152, 275.31, -146.72, 276.188, 93.2279
16, 1800.00000, 7550.89, -2.27155, 7545.25, -122.23, 7541.39, 117.708, 273.253, -26.6925, 273.446, -146.694, 274.344, 93.2535
16, 2400.00000, 7552.56, -2.26292, 7546.96, -122.222, 7543.13, 117.717, 272.188, -26.6785, 272.377, -146.679, 273.272, 93.2687
16, 3000.00000, 7560.2, -2.22414, 7554.65, -122.184, 7550.84, 117.755, 267.362, -26.6144, 267.541, -146.613, 268.442, 93.3347
17, 0.00000, 7565.65, -2.19562, 7560.27, -122.156, 7556.56, 117.784, 263.856, -26.5685, 264.022, -146.565, 264.912, 93.3848
17, 600.00000, 7566.81, -2.18882, 7561.58, -122.151, 7558, 117.791, 263.052, -26.5582, 263.204, -146.554, 264.075, 93.3985
17, 1200.00000, 7552.56, -2.25975, 7547.48, -122.223, 7544, 117.721, 271.946, -26.6788, 272.087, -146.674, 272.941, 93.2825
17, 1800.00000, 7575.17, -2.14418, 7570.33, -122.109, 7567.01, 117.837, 257.603, -26.4871, 257.724, -146.479, 258.563, 93.4792
17, 2400.00000, 7569.48, -2.17242, 7564.74, -122.138, 7561.49, 117.809, 261.146, -26.5354, 261.254, -146.527, 262.085, 93.4342
17, 3000.00000, 7615.64, -1.93714, 7610.93, -121.903, 7607.68, 118.043, 231.956, -26.1434, 232.044, -146.13, 232.898, 93.8288
18, 0.00000, 7708.11, -1.50623, 7703.38, -121.472, 7700.07, 118.473, 175.103, -24.4323, 175.162, -144.406, 176.067, 95.5382
18, 600.00000, 7847.55, -0.721471, 7842.74, -120.689, 7839.48, 119.256, 83.0631, -23.4077, 83.0985, -143.323, 84.0648, 96.5694
18, 1200.00000, 7892.28, -0.46235, 7887.5, -120.43, 7884.36, 119.515, 53.0546, -23.205, 53.0837, -143.071, 54.0434, 96.7774
18, 1800.00000, 7891.67, -0.465499, 7886.95, -120.434, 7883.84, 119.512, 53.4351, -23.2124, 53.4565, -143.078, 54.4125, 96.7788
18, 2400.00000, 7900.16, -0.416591, 7895.43, -120.385, 7892.31, 119.561, 47.7447, -23.1665, 47.7698, -143.017, 48.7243, 96.8189
18, 3000.00000, 7905.78, -0.384109, 7901.06, -120.353, 7897.96, 119.594, 43.9685, -23.135, 43.9949, -142.975, 44.9443, 96.8476
19, 0.00000, 7901.84, -0.406271, 7897.2, -120.375, 7894.15, 119.572, 46.5678, -23.1624, 46.5872, -143.011, 47.5267, 96.8305
19, 600.00000, 7903.59, -0.39535, 7899.08, -120.365, 7896.14, 119.583, 45.325, -23.1544, 45.3383, -143.002, 46.2548, 96.8468
19, 1200.00000, 7908.25, -0.367854, 7903.85, -120.339, 7900.98, 119.611, 42.1441, -23.1268, 42.1537, -142.965, 43.0509, 96.8802
19, 1800.00000, 7908.62, -0.36473, 7904.38, -120.337, 7901.63, 119.615, 41.8094, -23.1224, 41.8179, -142.966, 42.6824, 96.887
19, 2400.00000, 7908.97, -0.361392, 7904.95, -120.335, 7902.36, 119.619, 41.462, -23.1193, 41.462, -142.968, 42.2871, 96.9028
19, 3000.00000, 7907.53, -0.369397, 7903.55, -120.343, 7901, 119.611, 42.402, -23.1267, 42.4029, -142.981, 43.2174, 96.8938
20, 0.00000, 7903.72, -0.390972, 7899.8, -120.365, 7897.29, 119.59, 44.925, -23.1488, 44.9235, -143.013, 45.7274, 96.8741
20, 600.00000, 7907, -0.371812, 7903.13, -120.346, 7900.65, 119.609, 42.703, -23.1297, 42.6991, -142.987, 43.4951, 96.8977
20, 1200.00000, 7903.64, -0.390685, 7899.85, -120.366, 7897.42, 119.591, 44.9146, -23.1498, 44.9062, -143.015, 45.6904, 96.8824
20, 1800.00000, 7906.18, -0.377532, 7902.14, -120.351, 7899.55, 119.603, 43.3366, -23.1322, 43.3447, -142.991, 44.1647, 96.8782
20, 2400.00000, 7903.35, -0.393775, 7899.31, -120.367, 7896.72, 119.587, 45.2325, -23.1522, 45.2403, -143.017, 46.0591, 96.8582
20, 3000.00000, 7902.38, -0.399098, 7898.39, -120.373, 7895.84, 119.582, 45.8567, -23.1536, 45.8633, -143.021, 46.6733, 96.8583
21, 0.00000, 7912.28, -0.34176, 7908.35, -120.316, 7905.84, 119.639, 39.19, -23.0927, 39.1953, -142.94, 39.9938, 96.923
21, 600.00000, 7910.36, -0.352524, 7906.47, -120.327, 7903.99, 119.629, 40.4507, -23.1026, 40.4607, -142.959, 41.2457, 96.9061
21, 1200.00000, 7914.58, -0.327818, 7910.75, -120.303, 7908.33, 119.654, 37.5838, -23.0724, 37.5962, -142.923, 38.364, 96.9331
21, 1800.00000, 7913.07, -0.336042, 7909.31, -120.311, 7906.94, 119.646, 38.556, -23.0828, 38.5692, -142.941, 39.321, 96.9216
21, 2400.00000, 7909.66, -0.355301, 7905.95, -120.331, 7903.63, 119.627, 40.811, -23.1038, 40.8317, -142.976, 41.5636, 96.8899
21, 3000.00000, 7910.59, -0.349925, 7906.88, -120.326, 7904.56, 119.632, 40.1839, -23.097, 40.2084, -142.969, 40.9373, 96.8912
22, 0.00000, 7908.23, -0.363638, 7904.49, -120.34, 7902.17, 119.619, 41.7782, -23.1113, 41.8066, -142.99, 42.5352, 96.8718
22, 600.00000, 7914.38, -0.32815, 7910.66, -120.304, 7908.34, 119.654, 37.6445, -23.069, 37.6746, -142.935, 38.3992, 96.9095
22, 1200.00000, 7912.51, -0.338948, 7908.78, -120.315, 7906.46, 119.644, 38.9027, -23.0816, 38.9336, -142.953, 39.6575, 96.8964
22, 1800.00000, 7908.27, -0.363502, 7904.51, -120.339, 7902.18, 119.619, 41.7572, -23.108, 41.7923, -142.989, 42.5184, 96.8658
22, 2400.00000, 7914.44, -0.328053, 7910.67, -120.304, 7908.33, 119.654, 37.6246, -23.0656, 37.6624, -142.934, 38.3879, 96.9009
22, 3000.00000, 7913.04, -0.336098, 7909.27, -120.312, 7906.93, 119.646, 38.5636, -23.077, 38.6011, -142.949, 39.3268, 96.8908
23, 0.00000, 7911.61, -0.343836, 7907.93, -120.32, 7905.65, 119.639, 39.4784, -23.0833, 39.5109, -142.959, 40.2224, 96.8926
23, 600.00000, 7912.17, -0.341021, 7908.42, -120.317, 7906.1, 119.641, 39.1365, -23.0764, 39.1764, -142.952, 39.8948, 96.8885
23, 1200.00000, 7878.73, -0.534186, 7874.91, -120.51, 7872.55, 119.448, 61.5901, -23.2603, 61.6384, -143.182, 62.362, 96.7095
23, 1800.00000, 7870.68, -0.580251, 7866.92, -120.556, 7864.62, 119.402, 66.9479, -23.2974, 66.9961, -143.227, 67.7057, 96.6749
23, 2400.00000, 7867.98, -0.596785, 7864.06, -120.572, 7861.66, 119.385, 68.8358, -23.3071, 68.8998, -143.24, 69.6261, 96.6523
23, 3000.00000, 7870.31, -0.582906, 7866.45, -120.559, 7864.11, 119.399, 67.2367, -23.2944, 67.3056, -143.229, 68.0129, 96.66
24, 0.00000, 7864.15, -0.618122, 7860.35, -120.594, 7858.06, 119.365, 71.3321, -23.3219, 71.402, -143.262, 72.0945, 96.6343
