hour, t(sec), V1, VAngle1, V2, VAngle2, V3, VAngle3, I1, IAngle1, I2, IAngle2, I3, IAngle3
0, 600.00000, 7619.55, -1.58858, 7615.21, -121.565, 7611.75, 118.388, 117.326, 156.386, 117.425, 36.4245, 118.158, -83.6583
0, 1200.00000, 7556.59, -1.88228, 7552.26, -121.858, 7548.77, 118.094, 138.4, 156.264, 138.497, 36.293, 139.224, -83.7779
0, 1800.00000, 7577.33, -1.78553, 7572.88, -121.762, 7569.39, 118.19, 131.478, 156.306, 131.585, 36.3384, 132.321, -83.738
0, 2400.00000, 7573.52, -1.80316, 7569.08, -121.779, 7565.59, 118.173, 132.75, 156.296, 132.851, 36.3275, 133.591, -83.7459
0, 3000.00000, 7583.9, -1.75485, 7579.46, -121.731, 7575.96, 118.221, 129.278, 156.319, 129.385, 36.3518, 130.123, -83.7261
1, 0.00000, 7569.75, -1.82054, 7565.37, -121.797, 7561.93, 118.155, 134, 156.289, 134.099, 36.3197, 134.829, -83.7515
1, 600.00000, 7577.24, -1.78537, 7572.92, -121.762, 7569.52, 118.191, 131.479, 156.306, 131.578, 36.3376, 132.3, -83.735
1, 1200.00000, 7581, -1.76762, 7576.73, -121.745, 7573.37, 118.209, 130.21, 156.313, 130.308, 36.3452, 131.022, -83.7273
1, 1800.00000, 7592.26, -1.71478, 7588.07, -121.692, 7584.77, 118.262, 126.423, 156.335, 126.519, 36.3682, 127.221, -83.7048
1, 2400.00000, 7575.32, -1.79338, 7571.21, -121.771, 7567.99, 118.184, 132.072, 156.302, 132.164, 36.3327, 132.853, -83.7347
1, 3000.00000, 7592.2, -1.71429, 7588.17, -121.693, 7585, 118.263, 126.405, 156.334, 126.493, 36.3666, 127.174, -83.7018
2, 0.00000, 7570.59, -1.81514, 7566.56, -121.793, 7563.4, 118.162, 133.638, 156.293, 133.726, 36.3227, 134.403, -83.7418
2, 600.00000, 7599.77, -1.67916, 7595.71, -121.657, 7592.53, 118.298, 123.877, 156.349, 123.968, 36.3822, 124.649, -83.6889
2, 1200.00000, 7582.84, -1.75793, 7578.8, -121.736, 7575.64, 118.22, 129.537, 156.317, 129.628, 36.3476, 130.304, -83.7199
2, 1800.00000, 7600.7, -1.67473, 7596.66, -121.653, 7593.49, 118.303, 123.559, 156.351, 123.65, 36.384, 124.33, -83.687
2, 2400.00000, 7575.35, -1.79307, 7571.27, -121.771, 7568.1, 118.184, 132.052, 156.303, 132.145, 36.3326, 132.825, -83.7345
2, 3000.00000, 7589.42, -1.72748, 7585.34, -121.706, 7582.15, 118.25, 127.345, 156.33, 127.437, 36.362, 128.121, -83.7079
3, 0.00000, 7585.69, -1.74482, 7581.61, -121.723, 7578.42, 118.233, 128.593, 156.322, 128.686, 36.3534, 129.368, -83.7157
3, 600.00000, 7596.01, -1.69677, 7591.93, -121.675, 7588.73, 118.281, 125.139, 156.342, 125.232, 36.3752, 125.915, -83.6961
3, 1200.00000, 7579.19, -1.7757, 7574.99, -121.753, 7571.71, 118.201, 130.795, 156.31, 130.896, 36.3411, 131.592, -83.7306
3, 1800.00000, 7591.52, -1.71874, 7587.19, -121.696, 7583.82, 118.258, 126.694, 156.335, 126.804, 36.367, 127.515, -83.7117
3, 2400.00000, 7583.15, -1.75817, 7578.73, -121.735, 7575.29, 118.218, 129.516, 156.319, 129.633, 36.3505, 130.352, -83.7298
3, 3000.00000, 7593.56, -1.71036, 7588.98, -121.686, 7585.42, 118.265, 126.068, 156.34, 126.195, 36.3724, 126.934, -83.7152
4, 0.00000, 7573, -1.8074, 7568.26, -121.782, 7564.5, 118.168, 132.991, 156.301, 133.128, 36.3314, 133.889, -83.7602
4, 600.00000, 7594.71, -1.70688, 7589.8, -121.68, 7585.89, 118.268, 125.763, 156.343, 125.91, 36.3767, 126.695, -83.7262
4, 1200.00000, 7577.83, -1.78608, 7572.82, -121.759, 7568.83, 118.189, 131.435, 156.311, 131.589, 36.3425, 132.384, -83.7592
4, 1800.00000, 7590.15, -1.72968, 7584.91, -121.701, 7580.71, 118.244, 127.364, 156.335, 127.531, 36.369, 128.358, -83.7442
4, 2400.00000, 7580.77, -1.77359, 7575.49, -121.745, 7571.27, 118.2, 130.512, 156.317, 130.68, 36.3494, 131.511, -83.7618
4, 3000.00000, 7577.94, -1.7869, 7572.64, -121.758, 7568.42, 118.187, 131.463, 156.311, 131.632, 36.3439, 132.465, -83.7666
5, 0.00000, 7580.76, -1.77395, 7575.42, -121.745, 7571.16, 118.2, 130.53, 156.317, 130.7, 36.3502, 131.54, -83.7624
5, 600.00000, 7581.72, -1.76965, 7576.34, -121.741, 7572.04, 118.204, 130.217, 156.319, 130.389, 36.3523, 131.236, -83.7619
5, 1200.00000, 7589.22, -1.73483, 7583.82, -121.706, 7579.48, 118.238, 127.715, 156.333, 127.887, 36.3682, 128.74, -83.7489
5, 1800.00000, 7577, -1.79181, 7571.58, -121.762, 7567.22, 118.181, 131.808, 156.307, 131.977, 36.3396, 132.834, -83.7725
5, 2400.00000, 7549.73, -1.9193, 7544.34, -121.89, 7540.05, 118.054, 140.929, 156.255, 141.095, 36.2822, 141.94, -83.8201
5, 3000.00000, 7523.38, -2.04251, 7518.14, -122.014, 7514, 117.931, 149.717, 156.204, 149.876, 36.2288, 150.696, -83.8631
6, 0.00000, 7602.39, -1.67253, 7597.12, -121.644, 7592.88, 118.301, 123.269, 156.354, 123.441, 36.3923, 124.275, -83.728
6, 600.00000, 7552.53, -1.9051, 7547.29, -121.877, 7543.16, 118.069, 139.944, 156.258, 140.11, 36.2837, 140.924, -83.8168
6, 1200.00000, 7425.62, -2.45611, 7420.45, -122.427, 7416.37, 117.519, 181.44, 155.518, 181.601, 35.5331, 182.392, -84.5415
6, 1800.00000, 7550.68, -1.91404, 7545.39, -121.885, 7541.23, 118.06, 140.576, 156.254, 140.746, 36.2801, 141.564, -83.8213
6, 2400.00000, 7337.75, -2.86369, 7332.52, -122.833, 7328.43, 117.111, 210.589, 155.283, 210.753, 35.2932, 211.541, -84.7717
6, 3000.00000, 7185.82, -3.37488, 7180.47, -123.343, 7176.46, 116.6, 257.089, 153.52, 257.265, 33.5208, 258.025, -86.5275
7, 0.00000, 7162.18, -3.47457, 7156.79, -123.442, 7152.78, 116.501, 264.693, 153.419, 264.871, 33.4186, 265.63, -86.6282
7, 600.00000, 7152.18, -3.51727, 7146.62, -123.484, 7142.49, 116.458, 267.938, 153.375, 268.125, 33.3739, 268.899, -86.6742
7, 1200.00000, 7170.73, -3.43949, 7165.11, -123.406, 7160.94, 116.535, 261.993, 153.455, 262.183, 33.4524, 262.962, -86.5974
7, 1800.00000, 7151.4, -3.52131, 7145.69, -123.487, 7141.49, 116.453, 268.22, 153.373, 268.414, 33.3694, 269.196, -86.6796
7, 2400.00000, 7179.35, -3.4047, 7173.42, -123.369, 7169.03, 116.569, 259.29, 153.492, 259.496, 33.4879, 260.305, -86.5661
7, 3000.00000, 7139.24, -3.57541, 7132.86, -123.536, 7128.16, 116.398, 272.261, 153.32, 272.493, 33.3127, 273.34, -86.744
8, 0.00000, 7140.99, -3.56887, 7134.46, -123.529, 7129.64, 116.404, 271.734, 153.328, 271.975, 33.3193, 272.835, -86.7393
8, 600.00000, 7142.69, -3.56209, 7136.11, -123.522, 7131.35, 116.411, 271.197, 153.337, 271.442, 33.3251, 272.285, -86.7326
8, 1200.00000, 7128.52, -3.62174, 7121.89, -123.581, 7117.28, 116.353, 275.74, 153.278, 275.991, 33.2596, 276.796, -86.7947
8, 1800.00000, 7131.96, -3.60805, 7125.15, -123.566, 7120.43, 116.366, 274.67, 153.293, 274.933, 33.2727, 275.752, -86.784
8, 2400.00000, 7153.82, -3.51672, 7146.89, -123.474, 7142.25, 116.458, 267.671, 153.389, 267.946, 33.3618, 268.737, -86.6955
8, 3000.00000, 7117.89, -3.66777, 7110.99, -123.625, 7106.45, 116.308, 279.191, 153.237, 279.465, 33.2081, 280.234, -86.845
9, 0.00000, 7129.63, -3.61871, 7122.6, -123.575, 7118.19, 116.358, 275.433, 153.289, 275.721, 33.2508, 276.451, -86.8015
9, 600.00000, 7127.98, -3.62574, 7120.92, -123.582, 7116.54, 116.351, 275.964, 153.282, 276.255, 33.2422, 276.975, -86.8095
9, 1200.00000, 7100.6, -3.74094, 7093.52, -123.697, 7089.22, 116.237, 284.741, 153.167, 285.035, 33.1249, 285.735, -86.9238
9, 1800.00000, 7060.34, -3.90956, 7053.28, -123.865, 7049.06, 116.068, 297.616, 152.995, 297.91, 32.9522, 298.591, -87.0931
9, 2400.00000, 7067.68, -3.87846, 7060.6, -123.834, 7056.4, 116.1, 295.262, 153.024, 295.557, 32.98, 296.233, -87.0651
9, 3000.00000, 7132.11, -3.60844, 7125.06, -123.565, 7120.96, 116.37, 274.624, 153.305, 274.919, 33.2552, 275.578, -86.7922
10, 0.00000, 7082.36, -3.81699, 7075.39, -123.773, 7071.38, 116.162, 290.546, 153.092, 290.837, 33.0442, 291.479, -86.9987
10, 600.00000, 7090.59, -3.78216, 7083.59, -123.738, 7079.64, 116.197, 287.905, 153.126, 288.199, 33.0743, 288.825, -86.968
10, 1200.00000, 7141.29, -3.56996, 7134.23, -123.526, 7130.28, 116.41, 271.671, 153.347, 271.972, 33.2903, 272.592, -86.7549
10, 1800.00000, 7183.39, -3.39333, 7176.28, -123.349, 7172.33, 116.586, 258.164, 153.53, 258.468, 33.4701, 259.087, -86.5777
10, 2400.00000, 7066.71, -3.88183, 7059.73, -123.838, 7055.89, 116.098, 295.53, 153.023, 295.823, 32.9692, 296.426, -87.07
10, 3000.00000, 7079, -3.83026, 7072.05, -123.786, 7068.24, 116.15, 291.593, 153.076, 291.885, 33.0218, 292.484, -87.0175
11, 0.00000, 7072.43, -3.85769, 7065.54, -123.814, 7061.78, 116.123, 293.685, 153.049, 293.976, 32.995, 294.565, -87.0434
11, 600.00000, 7124.44, -3.63923, 7117.66, -123.597, 7114.02, 116.342, 277.007, 153.275, 277.295, 33.2174, 277.865, -86.8219
11, 1200.00000, 7044.52, -3.97356, 7037.99, -123.932, 7034.56, 116.008, 302.541, 152.934, 302.814, 32.8822, 303.354, -87.1506
11, 1800.00000, 7057.48, -3.91756, 7051.08, -123.877, 7047.74, 116.064, 298.35, 152.983, 298.618, 32.9312, 299.144, -87.101
11, 2400.00000, 7054.89, -3.92719, 7048.77, -123.889, 7045.67, 116.056, 299.116, 152.973, 299.372, 32.9221, 299.862, -87.1068
11, 3000.00000, 7081.09, -3.81705, 7075.02, -123.779, 7071.98, 116.166, 290.722, 153.085, 290.977, 33.0322, 291.457, -86.997
12, 0.00000, 7245.39, -3.12755, 7239.25, -123.091, 7236.16, 116.856, 237.989, 153.803, 238.252, 33.739, 238.741, -86.2988
12, 600.00000, 7181.89, -3.39353, 7176.11, -123.358, 7173.32, 116.591, 258.35, 153.527, 258.591, 33.4684, 259.035, -86.5607
12, 1200.00000, 7139.62, -3.56969, 7134.13, -123.536, 7131.53, 116.415, 271.859, 153.343, 272.083, 33.288, 272.5, -86.7361
12, 1800.00000, 7153.73, -3.50905, 7148.46, -123.477, 7146.04, 116.477, 267.276, 153.401, 267.489, 33.3461, 267.878, -86.6754
12, 2400.00000, 7195.95, -3.33126, 7190.74, -123.3, 7188.35, 116.655, 253.698, 153.584, 253.908, 33.5266, 254.292, -86.4954
12, 3000.00000, 7238.1, -3.15538, 7232.55, -123.122, 7229.9, 116.829, 240.207, 153.769, 240.436, 33.7076, 240.861, -86.3209
13, 0.00000, 7250.97, -3.10065, 7245.55, -123.068, 7243.01, 116.885, 236.034, 153.826, 236.256, 33.7637, 236.663, -86.2631
13, 600.00000, 7202.27, -3.30752, 7196.48, -123.272, 7193.62, 116.676, 251.798, 153.613, 252.038, 33.5544, 252.495, -86.4763
13, 1200.00000, 7242.44, -3.13785, 7236.76, -123.103, 7234.01, 116.846, 238.841, 153.789, 239.074, 33.7269, 239.515, -86.3031
13, 1800.00000, 7197.74, -3.32556, 7192.23, -123.292, 7189.59, 116.659, 253.2, 153.595, 253.42, 33.5366, 253.847, -86.4887
13, 2400.00000, 7200.36, -3.32163, 7193.31, -123.278, 7189.36, 116.658, 252.697, 153.604, 252.997, 33.5445, 253.622, -86.5046
13, 3000.00000, 7180.88, -3.4045, 7173.65, -123.36, 7169.5, 116.574, 259.003, 153.518, 259.309, 33.4606, 259.966, -86.5899
14, 0.00000, 7170.05, -3.45192, 7162.45, -123.404, 7157.94, 116.526, 262.569, 153.47, 262.891, 33.4133, 263.6, -86.6417
14, 600.00000, 7145.59, -3.55472, 7137.99, -123.507, 7133.38, 116.422, 270.428, 153.362, 270.743, 33.3098, 271.476, -86.7442
14, 1200.00000, 7132.2, -3.61122, 7124.54, -123.562, 7119.84, 116.365, 274.739, 153.304, 275.054, 33.2526, 275.803, -86.8015
14, 1800.00000, 7114.55, -3.68472, 7107, -123.636, 7102.37, 116.292, 280.376, 153.226, 280.677, 33.1771, 281.423, -86.8734
14, 2400.00000, 7216.5, -3.2565, 7208.94, -123.209, 7204.2, 116.72, 247.65, 153.669, 247.951, 33.6175, 248.722, -86.4419
14, 3000.00000, 7105.35, -3.72291, 7097.88, -123.675, 7093.21, 116.253, 283.313, 153.185, 283.605, 33.14, 284.368, -86.9102
15, 0.00000, 7127.66, -3.62877, 7120.33, -123.582, 7115.57, 116.347, 276.148, 153.279, 276.427, 33.24, 277.219, -86.8123
15, 600.00000, 7193.25, -3.35312, 7185.95, -123.307, 7181.16, 116.622, 255.09, 153.563, 255.365, 33.5241, 256.172, -86.5331
15, 1200.00000, 7219.54, -3.24141, 7212.46, -123.197, 7207.82, 116.734, 246.587, 153.677, 246.849, 33.6386, 247.637, -86.4174
15, 1800.00000, 7215.12, -3.2591, 7208.23, -123.216, 7203.68, 116.716, 247.972, 153.657, 248.22, 33.6214, 249.003, -86.4321
15, 2400.00000, 7244.26, -3.13579, 7237.48, -123.094, 7232.92, 116.839, 238.571, 153.782, 238.81, 33.7506, 239.606, -86.3052
15, 3000.00000, 7277.12, -2.9963, 7270.52, -122.956, 7265.74, 116.977, 227.957, 153.92, 228.179, 33.9041, 229.041, -86.1591
16, 0.00000, 7201.25, -3.3155, 7194.78, -123.275, 7190.02, 116.658, 252.376, 153.588, 252.59, 33.5764, 253.452, -86.4799
16, 600.00000, 7143.73, -3.55654, 7137.39, -123.517, 7132.61, 116.416, 270.831, 153.337, 271.034, 33.3307, 271.911, -86.7221
16, 1200.00000, 7130.34, -3.61268, 7124.04, -123.573, 7119.26, 116.36, 275.121, 153.279, 275.322, 33.2743, 276.2, -86.7774
16, 1800.00000, 7136.11, -3.5881, 7129.86, -123.549, 7125.02, 116.384, 273.264, 153.302, 273.457, 33.301, 274.355, -86.7519
16, 2400.00000, 7139.39, -3.57406, 7133.2, -123.535, 7128.4, 116.398, 272.199, 153.316, 272.388, 33.3154, 273.283, -86.7367
16, 3000.00000, 7154.4, -3.51075, 7148.29, -123.472, 7143.49, 116.461, 267.373, 153.38, 267.553, 33.3813, 268.454, -86.6708
17, 0.00000, 7165.2, -3.46444, 7159.28, -123.427, 7154.6, 116.508, 263.867, 153.426, 264.033, 33.4296, 264.924, -86.6208
17, 600.00000, 7167.58, -3.45358, 7161.85, -123.418, 7157.32, 116.519, 263.063, 153.436, 263.215, 33.4399, 264.086, -86.6071
17, 1200.00000, 7139.75, -3.56959, 7134.2, -123.535, 7129.79, 116.403, 271.958, 153.316, 272.099, 33.3201, 272.953, -86.7229
17, 1800.00000, 7184.24, -3.38139, 7178.99, -123.348, 7174.74, 116.592, 257.615, 153.507, 257.735, 33.5152, 258.574, -86.5266
17, 2400.00000, 7173.15, -3.42751, 7168.01, -123.395, 7163.85, 116.546, 261.157, 153.459, 261.266, 33.4672, 262.097, -86.5715
17, 3000.00000, 7263.82, -3.04547, 7258.77, -123.014, 7254.57, 116.928, 231.967, 153.85, 232.055, 33.8633, 232.909, -86.1777
18, 0.00000, 7444.77, -2.3678, 7439.78, -122.336, 7435.42, 117.604, 175.114, 155.559, 175.173, 35.5849, 176.078, -84.4706
18, 600.00000, 7722.63, -1.11857, 7717.66, -121.089, 7713.21, 118.852, 83.0745, 156.573, 83.1099, 36.6576, 84.0762, -83.4494
18, 1200.00000, 7812.4, -0.711998, 7807.49, -120.683, 7803.15, 119.259, 53.0662, 156.765, 53.0953, 36.8992, 54.055, -83.2522
18, 1800.00000, 7811.22, -0.716955, 7806.38, -120.689, 7802.08, 119.254, 53.4467, 156.758, 53.4681, 36.8923, 54.4241, -83.2505
18, 2400.00000, 7828.27, -0.640601, 7823.41, -120.612, 7819.1, 119.33, 47.7563, 156.8, 47.7814, 36.9491, 48.736, -83.2139
18, 3000.00000, 7839.57, -0.58999, 7834.72, -120.562, 7830.43, 119.381, 43.9802, 156.829, 44.0065, 36.9891, 44.956, -83.188
19, 0.00000, 7831.71, -0.624598, 7826.96, -120.597, 7822.74, 119.347, 46.5795, 156.803, 46.5988, 36.9548, 47.5384, -83.2031
19, 600.00000, 7835.33, -0.607725, 7830.73, -120.581, 7826.64, 119.364, 45.3366, 156.81, 45.3499, 36.9631, 46.2664, -83.1877
19, 1200.00000, 7844.77, -0.565024, 7840.29, -120.539, 7836.3, 119.407, 42.1558, 156.835, 42.1653, 36.9966, 43.0625, -83.1569
19, 1800.00000, 7845.65, -0.560355, 7841.32, -120.535, 7837.5, 119.413, 41.8211, 156.839, 41.8295, 36.9954, 42.6941, -83.1505
19, 2400.00000, 7846.52, -0.555416, 7842.43, -120.531, 7838.82, 119.419, 41.4736, 156.842, 41.4736, 36.9936, 42.2987, -83.135
19, 3000.00000, 7843.67, -0.567937, 7839.62, -120.544, 7836.06, 119.407, 42.4136, 156.836, 42.4145, 36.9812, 43.2291, -83.1432
20, 0.00000, 7836.06, -0.601612, 7832.08, -120.578, 7828.58, 119.373, 44.9366, 156.816, 44.9351, 36.9518, 45.739, -83.1609
20, 600.00000, 7842.68, -0.571818, 7838.76, -120.549, 7835.29, 119.404, 42.7147, 156.833, 42.7107, 36.9751, 43.5068, -83.1391
20, 1200.00000, 7836, -0.601299, 7832.16, -120.579, 7828.77, 119.374, 44.9263, 156.815, 44.9178, 36.9489, 45.7021, -83.1526
20, 1800.00000, 7840.91, -0.580553, 7836.79, -120.557, 7833.18, 119.394, 43.3483, 156.831, 43.3563, 36.9725, 44.1764, -83.158
20, 2400.00000, 7835.22, -0.605854, 7831.11, -120.582, 7827.51, 119.369, 45.2441, 156.812, 45.2519, 36.9479, 46.0707, -83.1765
20, 3000.00000, 7833.32, -0.61422, 7829.26, -120.591, 7825.7, 119.361, 45.8684, 156.812, 45.8749, 36.9439, 46.685, -83.1759
21, 0.00000, 7853.25, -0.525009, 7849.25, -120.502, 7845.74, 119.45, 39.2016, 156.866, 39.2069, 37.019, 40.0055, -83.117
21, 600.00000, 7849.44, -0.541817, 7845.47, -120.519, 7842.01, 119.434, 40.4624, 156.858, 40.4723, 37.0013, 41.2574, -83.1328
21, 1200.00000, 7857.97, -0.503482, 7854.06, -120.481, 7850.68, 119.473, 37.5954, 156.885, 37.6078, 37.0345, 38.3757, -83.1087
21, 1800.00000, 7855, -0.516351, 7851.16, -120.494, 7847.85, 119.46, 38.5677, 156.876, 38.5808, 37.0176, 39.3326, -83.1191
21, 2400.00000, 7848.19, -0.546391, 7844.39, -120.525, 7841.16, 119.431, 40.8227, 156.857, 40.8433, 36.9845, 41.5752, -83.1486
21, 3000.00000, 7850.07, -0.538028, 7846.26, -120.516, 7843.03, 119.439, 40.1956, 156.863, 40.22, 36.991, 40.949, -83.1479
22, 0.00000, 7845.31, -0.559358, 7841.46, -120.538, 7838.23, 119.418, 41.7899, 156.85, 41.8182, 36.972, 42.5469, -83.1658
22, 600.00000, 7857.69, -0.50417, 7853.85, -120.483, 7850.63, 119.473, 37.6562, 156.888, 37.6862, 37.022, 38.4109, -83.1322
22, 1200.00000, 7853.92, -0.520962, 7850.07, -120.499, 7846.85, 119.456, 38.9144, 156.877, 38.9452, 37.0061, 39.6692, -83.144
22, 1800.00000, 7845.39, -0.559144, 7841.5, -120.537, 7838.26, 119.418, 41.7688, 156.854, 41.8039, 36.973, 42.5301, -83.1719
22, 2400.00000, 7857.78, -0.503992, 7853.88, -120.482, 7850.63, 119.473, 37.6363, 156.892, 37.674, 37.0232, 38.3996, -83.1408
22, 3000.00000, 7854.96, -0.516495, 7851.06, -120.495, 7847.82, 119.461, 38.5752, 156.881, 38.6127, 37.0098, 39.3385, -83.1499
23, 0.00000, 7852.15, -0.52864, 7848.36, -120.507, 7845.19, 119.449, 39.49, 156.876, 39.5226, 37, 40.2341, -83.1472
23, 600.00000, 7853.23, -0.524204, 7849.35, -120.503, 7846.13, 119.453, 39.1482, 156.883, 39.188, 37.007, 39.9065, -83.1516
23, 1200.00000, 7786.03, -0.825692, 7782.06, -120.804, 7778.81, 119.151, 61.6017, 156.714, 61.6499, 36.7919, 62.3736, -83.316
23, 1800.00000, 7769.94, -0.898005, 7766.03, -120.877, 7762.85, 119.079, 66.9594, 156.679, 67.0076, 36.7489, 67.7172, -83.3485
23, 2400.00000, 7764.41, -0.923816, 7760.3, -120.902, 7757.01, 119.053, 68.8473, 156.67, 68.9113, 36.7371, 69.6377, -83.3705
23, 3000.00000, 7769.14, -0.902124, 7765.09, -120.88, 7761.87, 119.075, 67.2482, 156.682, 67.3171, 36.7476, 68.0245, -83.3634
24, 0.00000, 7756.83, -0.957516, 7752.84, -120.936, 7749.69, 119.02, 71.3436, 156.656, 71.4135, 36.7158, 72.106, -83.3877
