hour, t(sec), V1, VAngle1, V2, VAngle2, I1, IAngle1, I2, IAngle2
0, 600.00000, 112.934, 116.772, 0.000556941, 19.1699, 23.7423, -85.5396, 23.7423, 94.4603
0, 1200.00000, 111.956, 116.468, 0.000551224, 18.8409, 23.8473, -86.2569, 23.8473, 93.743
0, 1800.00000, 112.27, 116.538, 0.000553134, 18.784, 24.1761, -85.66, 24.1762, 94.3399
0, 2400.00000, 112.208, 116.514, 0.000552728, 18.7333, 24.2559, -85.6738, 24.2559, 94.3261
0, 3000.00000, 112.365, 116.567, 0.000553547, 18.8013, 24.218, -85.6492, 24.218, 94.3507
1, 0.00000, 112.177, 116.518, 0.000552982, 18.841, 23.9321, -85.658, 23.9321, 94.3419
1, 600.00000, 112.318, 116.579, 0.000554124, 19.0212, 23.5707, -85.6157, 23.5707, 94.3842
1, 1200.00000, 112.396, 116.617, 0.00055486, 19.1511, 23.2894, -85.5868, 23.2894, 94.4131
1, 1800.00000, 112.599, 116.701, 0.000556411, 19.3819, 22.8488, -85.5301, 22.8488, 94.4698
1, 2400.00000, 112.383, 116.65, 0.000555911, 19.4709, 22.3996, -85.5334, 22.3996, 94.4665
1, 3000.00000, 112.666, 116.759, 0.000557814, 19.7137, 21.9998, -85.4684, 21.9999, 94.5315
2, 0.00000, 112.345, 116.655, 0.000556232, 19.6056, 21.9949, -85.5133, 21.9949, 94.4866
2, 600.00000, 112.772, 116.79, 0.000558234, 19.7198, 22.0824, -85.4586, 22.0824, 94.5413
2, 1200.00000, 112.527, 116.714, 0.000557129, 19.667, 21.9976, -85.4878, 21.9976, 94.5121
2, 1800.00000, 112.793, 116.8, 0.000558436, 19.7561, 22.0018, -85.4508, 22.0018, 94.5491
2, 2400.00000, 112.403, 116.667, 0.000556313, 19.5661, 22.1574, -85.5154, 22.1574, 94.4845
2, 3000.00000, 112.609, 116.732, 0.000557271, 19.621, 22.2024, -85.4879, 22.2024, 94.512
3, 0.00000, 112.553, 116.714, 0.000557004, 19.6019, 22.1998, -85.4971, 22.1998, 94.5028
3, 600.00000, 112.707, 116.764, 0.000557754, 19.6539, 22.2035, -85.4746, 22.2035, 94.5253
3, 1200.00000, 112.408, 116.641, 0.000555527, 19.332, 22.8041, -85.5551, 22.8042, 94.4449
3, 1800.00000, 112.543, 116.659, 0.000555428, 19.1564, 23.4126, -85.5739, 23.4126, 94.4261
3, 2400.00000, 112.382, 116.588, 0.000554087, 18.9401, 23.8545, -85.6239, 23.8545, 94.376
3, 3000.00000, 112.475, 116.586, 0.000553584, 18.6916, 24.6239, -85.6584, 24.6239, 94.3416
4, 0.00000, 112.053, 116.427, 0.000549433, 18.2278, 25.6289, -86.3535, 25.6289, 93.6464
4, 600.00000, 112.304, 116.474, 0.000549583, 17.998, 26.4997, -86.3603, 26.4997, 93.6396
4, 1200.00000, 112.008, 116.356, 0.000547429, 17.7032, 27.0332, -86.4528, 27.0332, 93.5471
4, 1800.00000, 112.087, 116.331, 0.000546238, 17.2755, 28.2884, -86.5174, 28.2884, 93.4825
4, 2400.00000, 111.932, 116.273, 0.000545232, 17.1549, 28.4722, -86.5598, 28.4723, 93.4402
4, 3000.00000, 111.884, 116.254, 0.000544897, 17.1112, 28.5477, -86.5741, 28.5477, 93.4259
5, 0.00000, 111.905, 116.251, 0.000544698, 17.0306, 28.7913, -86.5854, 28.7914, 93.4146
5, 600.00000, 111.9, 116.24, 0.000544368, 16.9415, 29.0316, -86.6017, 29.0317, 93.3982
5, 1200.00000, 111.997, 116.265, 0.000544638, 16.9132, 29.2033, -86.5934, 29.2033, 93.4065
5, 1800.00000, 111.8, 116.193, 0.000543437, 16.7802, 29.3821, -86.6433, 29.3821, 93.3566
5, 2400.00000, 111.411, 116.073, 0.000541759, 16.7192, 29.1787, -86.7074, 29.1787, 93.2926
5, 3000.00000, 111.088, 116, 0.0005412, 16.9106, 28.3425, -86.7182, 28.3425, 93.2818
6, 0.00000, 112.261, 116.384, 0.000546978, 17.2997, 28.3876, -86.4892, 28.3876, 93.5107
6, 600.00000, 111.535, 116.154, 0.000543615, 17.1214, 28.1893, -86.6195, 28.1893, 93.3804
6, 1200.00000, 109.603, 115.602, 0.000534621, 16.6104, 28.0511, -88.1742, 28.0511, 91.8258
6, 1800.00000, 111.488, 116.129, 0.000543082, 17.0196, 28.4253, -86.6441, 28.4254, 93.3558
6, 2400.00000, 108.256, 115.155, 0.000527323, 15.9687, 28.3034, -88.6355, 28.3035, 91.3645
6, 3000.00000, 105.95, 114.591, 0.000515129, 15.1431, 28.487, -89.2179, 28.487, 90.782
7, 0.00000, 105.58, 114.474, 0.00051302, 14.9399, 28.6454, -89.3407, 28.6454, 90.6592
7, 600.00000, 105.356, 114.37, 0.000510823, 14.5296, 29.4963, -89.4676, 29.4963, 90.5324
7, 1200.00000, 105.609, 114.432, 0.000511758, 14.5119, 29.8046, -89.4123, 29.8046, 90.5877
7, 1800.00000, 105.287, 114.319, 0.000509659, 14.2489, 30.1627, -89.5341, 30.1627, 90.4659
7, 2400.00000, 105.603, 114.361, 0.000509833, 13.9149, 31.3738, -89.5212, 31.3738, 90.4787
7, 3000.00000, 104.803, 114.023, 0.000503008, 12.7398, 33.616, -89.9173, 33.616, 90.0827
8, 0.00000, 104.758, 113.974, 0.000501804, 12.4096, 34.4335, -89.986, 34.4335, 90.0139
8, 600.00000, 104.783, 113.981, 0.000501927, 12.416, 34.443, -89.9781, 34.443, 90.0219
8, 1200.00000, 104.589, 113.933, 0.000501186, 12.4218, 34.221, -90.0224, 34.221, 89.9775
8, 1800.00000, 104.562, 113.886, 0.000499981, 12.068, 35.1183, -90.0914, 35.1184, 89.9086
8, 2400.00000, 104.878, 113.975, 0.000501429, 12.1403, 35.2737, -90.0046, 35.2737, 89.9953
8, 3000.00000, 104.367, 113.836, 0.0004992, 12.0584, 34.9327, -90.137, 34.9327, 89.8629
9, 0.00000, 104.535, 113.883, 0.000499939, 12.091, 35.0328, -90.0932, 35.0329, 89.9067
9, 600.00000, 104.508, 113.874, 0.000499765, 12.0696, 35.0603, -90.1035, 35.0603, 89.8964
9, 1200.00000, 104.108, 113.76, 0.000497884, 11.9604, 34.9123, -90.2146, 34.9123, 89.7853
9, 1800.00000, 103.523, 113.596, 0.000495162, 11.8161, 34.6581, -90.3764, 34.6581, 89.6235
9, 2400.00000, 103.634, 113.629, 0.000495714, 11.8613, 34.6615, -90.3447, 34.6615, 89.6553
9, 3000.00000, 104.637, 113.945, 0.00050132, 12.4081, 34.3138, -90.0124, 34.3138, 89.9875
10, 0.00000, 103.928, 113.754, 0.000498239, 12.3016, 33.8321, -90.1954, 33.8321, 89.8046
10, 600.00000, 104.055, 113.794, 0.000498915, 12.366, 33.8024, -90.1563, 33.8024, 89.8436
10, 1200.00000, 104.804, 114.01, 0.000502562, 12.5985, 33.9953, -89.9393, 33.9953, 90.0607
10, 1800.00000, 105.426, 114.19, 0.000505611, 12.7971, 34.142, -89.7577, 34.142, 90.2423
10, 2400.00000, 103.722, 113.708, 0.000497551, 12.3481, 33.4956, -90.2379, 33.4956, 89.762
10, 3000.00000, 103.924, 113.777, 0.000498824, 12.5044, 33.3046, -90.163, 33.3046, 89.8369
11, 0.00000, 103.854, 113.77, 0.000498851, 12.6007, 32.9793, -90.1616, 32.9793, 89.8384
11, 600.00000, 104.702, 114.056, 0.000504109, 13.2223, 32.2537, -89.8525, 32.2537, 90.1474
11, 1200.00000, 103.61, 113.788, 0.000500042, 13.2862, 30.9454, -90.0928, 30.9454, 89.9071
11, 1800.00000, 103.863, 113.895, 0.000502133, 13.6472, 30.2766, -89.9726, 30.2766, 90.0274
11, 2400.00000, 103.958, 113.994, 0.000504505, 14.283, 28.725, -89.8346, 28.7251, 90.1653
11, 3000.00000, 104.384, 114.137, 0.00050715, 14.5888, 28.3629, -89.6808, 28.3629, 90.3192
12, 0.00000, 106.835, 114.85, 0.0005195, 15.4194, 28.6717, -88.9579, 28.6717, 91.042
12, 600.00000, 106.04, 114.698, 0.000517693, 15.8274, 26.7782, -89.0681, 26.7782, 90.9318
12, 1200.00000, 105.522, 114.61, 0.00051674, 16.1677, 25.3671, -89.1255, 25.3671, 90.8744
12, 1800.00000, 105.835, 114.757, 0.000519831, 16.7371, 24.1782, -88.9478, 24.1782, 91.0521
12, 2400.00000, 106.494, 114.963, 0.000523574, 17.0794, 23.9171, -88.732, 23.9172, 91.268
12, 3000.00000, 106.981, 115.027, 0.000523925, 16.5985, 25.6761, -88.7086, 25.6761, 91.2913
13, 0.00000, 107.235, 115.134, 0.000526133, 16.9611, 24.9615, -88.5822, 24.9615, 91.4177
13, 600.00000, 106.33, 114.775, 0.000518951, 15.8639, 26.9751, -88.9949, 26.9751, 91.0051
13, 1200.00000, 106.987, 114.997, 0.000523093, 16.3366, 26.3795, -88.7552, 26.3795, 91.2447
13, 1800.00000, 106.379, 114.852, 0.000520911, 16.4029, 25.5947, -88.8837, 25.5947, 91.1162
13, 2400.00000, 105.7, 114.281, 0.000507278, 12.9876, 33.9339, -89.6597, 33.9339, 90.3403
13, 3000.00000, 105.305, 114.113, 0.000503861, 12.3879, 35.0894, -89.8583, 35.0894, 90.1416
14, 0.00000, 104.952, 113.915, 0.000499513, 11.4263, 37.2348, -90.1091, 37.2348, 89.8909
14, 600.00000, 104.553, 113.78, 0.00049706, 11.1304, 37.569, -90.2549, 37.569, 89.745
14, 1200.00000, 104.31, 113.687, 0.000495255, 10.8484, 38.0366, -90.3614, 38.0367, 89.6385
14, 1800.00000, 104.085, 113.638, 0.000494636, 10.9311, 37.5707, -90.4005, 37.5708, 89.5994
14, 2400.00000, 105.597, 114.082, 0.000502109, 11.4572, 37.8691, -89.9511, 37.8691, 90.0489
14, 3000.00000, 103.957, 113.605, 0.000494122, 10.925, 37.4448, -90.4321, 37.4448, 89.5679
15, 0.00000, 104.315, 113.722, 0.000496243, 11.1653, 37.2108, -90.3064, 37.2108, 89.6936
15, 600.00000, 105.307, 114.023, 0.000501407, 11.5933, 37.1836, -89.9973, 37.1836, 90.0026
15, 1200.00000, 105.798, 114.216, 0.000505208, 12.2033, 36.113, -89.7751, 36.113, 90.2249
15, 1800.00000, 105.806, 114.254, 0.000506236, 12.5227, 35.2736, -89.7179, 35.2736, 90.282
15, 2400.00000, 106.277, 114.411, 0.000509109, 12.8538, 34.9083, -89.5486, 34.9084, 90.4513
15, 3000.00000, 106.777, 114.562, 0.000511756, 13.0767, 34.8572, -89.3919, 34.8572, 90.6081
16, 0.00000, 105.673, 114.251, 0.000506604, 12.8033, 34.3834, -89.7011, 34.3835, 90.2988
16, 600.00000, 104.838, 114.016, 0.000502722, 12.604, 34.0076, -89.9336, 34.0077, 90.0664
16, 1200.00000, 104.648, 113.965, 0.000501916, 12.5812, 33.864, -89.9815, 33.864, 90.0184
16, 1800.00000, 104.736, 113.991, 0.000502373, 12.6194, 33.8573, -89.955, 33.8574, 90.045
16, 2400.00000, 104.806, 114.023, 0.000503025, 12.7398, 33.6172, -89.9171, 33.6172, 90.0828
16, 3000.00000, 105.052, 114.106, 0.000504555, 12.9223, 33.4, -89.8273, 33.4, 90.1726
17, 0.00000, 105.297, 114.22, 0.000506952, 13.3801, 32.4565, -89.6886, 32.4565, 90.3113
17, 600.00000, 105.413, 114.295, 0.000508651, 13.7742, 31.5408, -89.5912, 31.5408, 90.4087
17, 1200.00000, 105.069, 114.231, 0.000507921, 13.9706, 30.6654, -89.6366, 30.6654, 90.3634
17, 1800.00000, 105.858, 114.526, 0.000513656, 14.7965, 29.3055, -89.3035, 29.3055, 90.6964
17, 2400.00000, 105.737, 114.514, 0.00051368, 14.9525, 28.7692, -89.3036, 28.7692, 90.6963
17, 3000.00000, 107.106, 114.921, 0.000520808, 15.4883, 28.7519, -88.8868, 28.752, 91.1132
18, 0.00000, 109.796, 115.614, 0.000534183, 16.2597, 29.2273, -88.1884, 29.2273, 91.8116
18, 600.00000, 114.026, 116.9, 0.000555507, 17.5668, 29.1824, -85.718, 29.1824, 94.2819
18, 1200.00000, 115.421, 117.351, 0.000565191, 18.2469, 28.8531, -85.5157, 28.8532, 94.4842
18, 1800.00000, 115.427, 117.365, 0.000565555, 18.3536, 28.5699, -85.4977, 28.5699, 94.5022
18, 2400.00000, 115.677, 117.443, 0.000566729, 18.4395, 28.6169, -85.4639, 28.6169, 94.5361
18, 3000.00000, 115.855, 117.504, 0.000567743, 18.5555, 28.5001, -85.4308, 28.5001, 94.5692
19, 0.00000, 115.776, 117.497, 0.000567881, 18.6868, 28.0524, -85.4153, 28.0524, 94.5846
19, 600.00000, 115.896, 117.568, 0.000569435, 19.0311, 27.2453, -85.3488, 27.2453, 94.6511
19, 1200.00000, 116.09, 117.656, 0.000571161, 19.3439, 26.602, -85.2817, 26.602, 94.7182
19, 1800.00000, 116.183, 117.725, 0.000572783, 19.7339, 25.6318, -85.2092, 25.6318, 94.7907
19, 2400.00000, 116.305, 117.819, 0.000574999, 20.266, 24.2972, -85.1101, 24.2972, 94.8898
19, 3000.00000, 116.285, 117.824, 0.000575247, 20.3612, 24.013, -85.0954, 24.013, 94.9045
20, 0.00000, 116.202, 117.813, 0.000575276, 20.4613, 23.6462, -85.0847, 23.6462, 94.9152
20, 600.00000, 116.323, 117.863, 0.000576222, 20.6102, 23.3653, -85.0502, 23.3653, 94.9497
20, 1200.00000, 116.26, 117.862, 0.000576451, 20.7472, 22.9179, -85.0315, 22.9179, 94.9684
20, 1800.00000, 116.218, 117.79, 0.00057452, 20.218, 24.3357, -85.1247, 24.3357, 94.8752
20, 2400.00000, 116.136, 117.766, 0.000574172, 20.2015, 24.2927, -85.1339, 24.2927, 94.866
20, 3000.00000, 116.131, 117.776, 0.000574485, 20.3023, 24.0094, -85.1169, 24.0094, 94.883
21, 0.00000, 116.458, 117.894, 0.000576541, 20.5589, 23.6522, -85.0487, 23.6522, 94.9512
21, 600.00000, 116.424, 117.895, 0.000576718, 20.6485, 23.3676, -85.0359, 23.3676, 94.964
21, 1200.00000, 116.587, 117.964, 0.000578069, 20.8711, 22.9253, -84.9856, 22.9253, 95.0143
21, 1800.00000, 116.579, 117.98, 0.000578572, 21.0287, 22.4791, -84.9591, 22.4791, 95.0408
21, 2400.00000, 116.509, 117.976, 0.000578726, 21.149, 22.0721, -84.9434, 22.0721, 95.0565
21, 3000.00000, 116.537, 117.985, 0.000578864, 21.1595, 22.0727, -84.9394, 22.0727, 95.0605
22, 0.00000, 116.46, 117.957, 0.000578379, 21.1013, 22.1521, -84.9551, 22.1521, 95.0448
22, 600.00000, 116.651, 118.02, 0.000579425, 21.202, 22.0752, -84.9236, 22.0752, 95.0763
22, 1200.00000, 116.594, 118.003, 0.000579147, 21.181, 22.0739, -84.9314, 22.0739, 95.0685
22, 1800.00000, 116.454, 117.952, 0.000578252, 21.0701, 22.233, -84.9608, 22.233, 95.0391
22, 2400.00000, 116.635, 118.007, 0.000579102, 21.1235, 22.2776, -84.9381, 22.2776, 95.0618
22, 3000.00000, 116.593, 117.994, 0.000578896, 21.1078, 22.2764, -84.9442, 22.2764, 95.0557
23, 0.00000, 116.594, 118.016, 0.000579543, 21.2975, 21.7495, -84.9113, 21.7495, 95.0886
23, 600.00000, 116.581, 117.997, 0.000579029, 21.1613, 22.1142, -84.9357, 22.1142, 95.0642
23, 1200.00000, 115.549, 117.657, 0.000573469, 20.6401, 22.4568, -85.1022, 22.4568, 94.8977
23, 1800.00000, 115.341, 117.609, 0.000572932, 20.7086, 22.0475, -85.106, 22.0475, 94.8939
23, 2400.00000, 115.19, 117.525, 0.000571153, 20.3406, 22.895, -85.1804, 22.895, 94.8195
23, 3000.00000, 115.296, 117.578, 0.000572217, 20.5441, 22.4516, -85.1373, 22.4517, 94.8626
24, 0.00000, 115.145, 117.547, 0.000571958, 20.6342, 22.0436, -85.1332, 22.0436, 94.8667
