hour, t(sec), V1, VAngle1, V2, VAngle2, V3, VAngle3, V4, VAngle4, I1, IAngle1, I2, IAngle2, I3, IAngle3, I4, IAngle4
0, 600.00000, 124.117, -32.9073, 124.426, -152.992, 124.266, 86.8713, 1.99941E-006, 138.331, 61.4398, 122.847, 62.4328, 9.47777, 69.1963, -111.069, 4.30897, 141.668
0, 1200.00000, 123.587, -33.2377, 123.9, -153.322, 123.735, 86.5384, 1.97538E-006, 137.539, 61.0093, 122.535, 61.9628, 9.28448, 68.8323, -111.329, 4.25722, 140.879
0, 1800.00000, 124.001, -33.1215, 124.322, -153.212, 124.14, 86.6478, 1.98163E-006, 136.801, 60.9466, 122.494, 62.0923, 9.48915, 69.1518, -111.399, 4.26821, 140.014
0, 2400.00000, 123.912, -33.1544, 124.232, -153.244, 124.056, 86.6153, 2.00199E-006, 137.076, 61.5807, 122.507, 62.6687, 9.40734, 69.7202, -111.375, 4.31072, 140.384
0, 3000.00000, 124.131, -33.0881, 124.451, -153.179, 124.27, 86.6812, 1.99071E-006, 136.875, 61.0841, 122.516, 62.2447, 9.49747, 69.2977, -111.383, 4.2872, 140.132
1, 0.00000, 123.85, -33.1659, 124.165, -153.253, 123.994, 86.6079, 1.98497E-006, 137.355, 61.0668, 122.54, 62.1044, 9.36682, 69.0315, -111.344, 4.2729, 140.652
1, 600.00000, 124.008, -33.1243, 124.314, -153.208, 124.156, 86.6557, 1.98426E-006, 138.097, 60.9978, 122.647, 61.9693, 9.27947, 68.6935, -111.262, 4.27433, 141.442
1, 1200.00000, 124.102, -33.0885, 124.405, -153.172, 124.247, 86.694, 1.95758E-006, 138.071, 60.184, 122.672, 61.1749, 9.32058, 67.8144, -111.253, 4.21895, 141.382
1, 1800.00000, 124.357, -33.0066, 124.652, -153.089, 124.497, 86.7805, 1.92792E-006, 138.243, 59.1009, 122.743, 60.12, 9.36841, 66.5952, -111.218, 4.15217, 141.513
1, 2400.00000, 124.029, -33.0915, 124.317, -153.169, 124.174, 86.7017, 1.90811E-006, 138.776, 58.6387, 122.773, 59.5256, 9.23718, 65.8292, -111.17, 4.10724, 142.043
1, 3000.00000, 124.383, -32.9926, 124.662, -153.068, 124.528, 86.8067, 1.90245E-006, 139.497, 58.2634, 122.902, 59.1314, 9.20304, 65.2194, -111.082, 4.09676, 142.765
2, 0.00000, 123.948, -33.1089, 124.229, -153.183, 124.095, 86.6896, 1.88946E-006, 139.221, 58.1534, 122.826, 58.9676, 9.16064, 65.1072, -111.125, 4.06713, 142.491
2, 600.00000, 124.549, -32.9365, 124.831, -153.016, 124.685, 86.8593, 1.87911E-006, 138.714, 57.5083, 122.852, 58.5009, 9.3718, 64.6891, -111.147, 4.04749, 141.942
2, 1200.00000, 124.21, -33.0263, 124.493, -153.104, 124.349, 86.7701, 1.86737E-006, 138.563, 57.3589, 122.808, 58.2954, 9.321, 64.4858, -111.168, 4.01951, 141.848
2, 1800.00000, 124.572, -32.9284, 124.853, -153.007, 124.707, 86.8682, 1.87276E-006, 138.7, 57.3466, 122.861, 58.3414, 9.37462, 64.5032, -111.146, 4.03319, 141.946
2, 2400.00000, 124.057, -33.0667, 124.343, -153.146, 124.194, 86.7267, 1.86449E-006, 138.113, 57.3402, 122.742, 58.2983, 9.35888, 64.5901, -111.215, 4.01216, 141.408
2, 3000.00000, 124.337, -32.9939, 124.623, -153.073, 124.474, 86.7999, 1.87734E-006, 138.393, 57.5681, 122.793, 58.5546, 9.37511, 64.8205, -111.183, 4.04303, 141.647
3, 0.00000, 124.263, -33.0125, 124.549, -153.092, 124.399, 86.7809, 1.87427E-006, 138.355, 57.474, 122.775, 58.4584, 9.37801, 64.7375, -111.195, 4.03388, 141.546
3, 600.00000, 124.472, -32.9553, 124.758, -153.036, 124.607, 86.838, 1.87394E-006, 138.27, 57.4372, 122.801, 58.4634, 9.41786, 64.7344, -111.192, 4.03547, 141.521
3, 1200.00000, 124.124, -33.0461, 124.424, -153.132, 124.252, 86.7366, 1.8697E-006, 136.71, 57.4291, 122.593, 58.5655, 9.58124, 65.1921, -111.348, 4.02281, 139.994
3, 1800.00000, 124.377, -32.9635, 124.693, -153.059, 124.489, 86.807, 1.85093E-006, 134.779, 56.711, 122.417, 58.1217, 9.94542, 65.1215, -111.518, 3.98737, 137.941
3, 2400.00000, 124.213, -32.9971, 124.54, -153.099, 124.314, 86.764, 1.83442E-006, 132.99, 56.1254, 122.227, 57.6863, 10.175, 64.9931, -111.67, 3.94633, 136.226
3, 3000.00000, 124.394, -32.9547, 124.739, -153.065, 124.483, 86.7934, 1.8376E-006, 131.183, 56.9814, 122.078, 58.7832, 10.3776, 66.4992, -111.892, 3.95907, 134.311
4, 0.00000, 123.96, -33.0702, 124.326, -153.189, 124.04, 86.662, 1.85049E-006, 128.782, 57.2424, 121.791, 59.2036, 10.5907, 67.4369, -112.102, 3.9724, 132.133
4, 600.00000, 124.378, -32.958, 124.761, -153.087, 124.443, 86.7602, 1.85565E-006, 127.102, 57.6909, 121.649, 59.9425, 10.8838, 68.6117, -112.275, 4.00785, 130.168
4, 1200.00000, 124.014, -33.0629, 124.41, -153.197, 124.075, 86.6459, 1.8738E-006, 125.561, 58.4156, 121.493, 60.7369, 10.9207, 69.7179, -112.424, 4.02169, 128.924
4, 1800.00000, 124.221, -33.0153, 124.644, -153.162, 124.267, 86.6737, 1.89706E-006, 123.263, 59.6103, 121.28, 62.2513, 11.1903, 71.8667, -112.66, 4.09238, 126.427
4, 2400.00000, 124.02, -33.0755, 124.446, -153.223, 124.068, 86.6112, 1.91545E-006, 123.108, 60.0797, 121.245, 62.6998, 11.146, 72.3951, -112.677, 4.11617, 126.416
4, 3000.00000, 123.956, -33.0969, 124.383, -153.244, 124.006, 86.5891, 1.92764E-006, 122.958, 60.397, 121.245, 63.0011, 11.1091, 72.7158, -112.674, 4.13284, 126.553
5, 0.00000, 124.001, -33.0903, 124.431, -153.239, 124.05, 86.593, 1.93615E-006, 123.383, 60.8802, 121.237, 63.5109, 11.1114, 73.3119, -112.679, 4.1686, 126.537
5, 600.00000, 124.013, -33.0883, 124.448, -153.239, 124.061, 86.5915, 1.94704E-006, 122.641, 61.0787, 121.199, 63.7548, 11.154, 73.6673, -112.706, 4.18932, 126.221
5, 1200.00000, 124.149, -33.061, 124.585, -153.212, 124.199, 86.6182, 1.96128E-006, 124.605, 61.8055, 121.246, 64.4842, 11.1057, 74.4126, -112.676, 4.23751, 126.659
5, 1800.00000, 123.896, -33.131, 124.337, -153.283, 123.947, 86.545, 1.97543E-006, 123.108, 61.9918, 121.178, 64.6633, 11.0989, 74.6989, -112.715, 4.24511, 126.343
5, 2400.00000, 124.071, -33.276, 124.508, -153.426, 124.123, 86.403, 1.97105E-006, 123.197, 62.0101, 121.052, 64.6695, 10.8817, 74.606, -112.867, 4.24647, 126.569
5, 3000.00000, 123.562, -33.4083, 123.985, -153.551, 123.621, 86.2814, 1.92948E-006, 124.049, 61.2034, 121.098, 63.6461, 10.694, 73.253, -112.82, 4.15222, 127.34
6, 0.00000, 125.168, -32.9304, 125.608, -153.083, 125.217, 86.7502, 1.95561E-006, 124.63, 59.466, 120.384, 62.1094, 10.783, 72.0449, -113.161, 4.21547, 128.058
6, 600.00000, 124.163, -33.2015, 124.59, -153.357, 124.202, 86.4813, 1.944E-006, 125.076, 59.2767, 120.334, 62.145, 10.5658, 71.7683, -113.452, 4.18313, 128.289
6, 1200.00000, 123.767, -33.873, 124.195, -154.028, 123.807, 85.8091, 1.92633E-006, 124.027, 58.9901, 119.691, 61.8079, 9.97641, 71.4591, -114.06, 4.15047, 127.398
6, 1800.00000, 124.848, -33.2042, 125.276, -153.365, 124.875, 86.4755, 1.96113E-006, 124.606, 59.1998, 120.184, 62.3102, 10.5489, 71.977, -113.68, 4.21996, 127.767
6, 2400.00000, 123.062, -34.3108, 123.495, -154.474, 123.092, 85.3629, 1.94703E-006, 123.163, 59.6812, 119.319, 62.7307, 9.68796, 72.5141, -114.539, 4.1952, 126.515
6, 3000.00000, 121.333, -35.0993, 121.778, -155.27, 121.357, 84.5613, 1.95747E-006, 121.641, 60.6218, 118.723, 63.8442, 9.21087, 73.8714, -115.208, 4.22154, 125.081
7, 0.00000, 120.8, -35.2394, 121.243, -155.416, 120.815, 84.4176, 1.96808E-006, 121.694, 60.8638, 118.667, 64.2951, 9.15167, 74.2839, -115.397, 4.23523, 124.848
7, 600.00000, 120.556, -35.3057, 121.011, -155.494, 120.554, 84.3373, 1.99891E-006, 120.712, 61.3816, 118.515, 65.2247, 9.28325, 75.4866, -115.66, 4.3032, 123.577
7, 1200.00000, 120.969, -35.2003, 121.416, -155.399, 120.945, 84.4412, 2.02118E-006, 120.304, 61.4225, 118.59, 65.7743, 9.33326, 75.8278, -115.879, 4.35363, 123.667
7, 1800.00000, 120.524, -35.3218, 120.97, -155.528, 120.487, 84.314, 2.04249E-006, 120.372, 61.9529, 118.543, 66.6215, 9.28428, 76.6573, -116.1, 4.39633, 123.424
7, 2400.00000, 121.127, -35.1665, 121.587, -155.39, 121.062, 84.4529, 2.09104E-006, 119.428, 62.3117, 118.436, 67.6216, 9.58488, 77.984, -116.356, 4.50754, 121.956
7, 3000.00000, 120.162, -35.3896, 120.688, -155.663, 120.034, 84.169, 2.16428E-006, 114.316, 62.6409, 117.111, 69.2792, 10.011, 81.1027, -117.537, 4.65648, 117.948
8, 0.00000, 120.182, -35.3904, 120.71, -155.68, 120.026, 84.1569, 2.21105E-006, 113.454, 63.2366, 117.066, 70.5306, 10.075, 82.4036, -117.837, 4.75289, 117.444
8, 600.00000, 120.252, -35.3609, 120.742, -155.675, 120.033, 84.1899, 2.21205E-006, 114.871, 62.0993, 117.184, 70.7837, 10.051, 81.7706, -118.572, 4.76676, 117.745
8, 1200.00000, 120.003, -35.4021, 120.416, -155.763, 119.664, 84.157, 2.20754E-006, 116.075, 59.7511, 117.409, 71.0441, 9.93593, 80.2858, -120.055, 4.76106, 118.374
8, 1800.00000, 120.07, -35.3807, 120.49, -155.76, 119.699, 84.164, 2.24423E-006, 114.649, 59.7482, 117.263, 71.7543, 10.1224, 81.176, -120.384, 4.83948, 117.179
8, 2400.00000, 120.625, -35.2084, 120.98, -155.634, 120.134, 84.3404, 2.26233E-006, 114.192, 57.1897, 117.421, 71.7519, 10.2355, 79.8141, -121.791, 4.86431, 117.217
8, 3000.00000, 119.855, -35.3948, 120.176, -155.84, 119.316, 84.1578, 2.24088E-006, 113.29, 55.9905, 117.484, 71.6069, 10.1013, 78.9, -122.544, 4.81893, 117.337
9, 0.00000, 120.199, -35.2702, 120.439, -155.773, 119.512, 84.2871, 2.25066E-006, 114.249, 52.8622, 117.682, 71.6522, 10.1784, 77.3268, -124.447, 4.83713, 117.418
9, 600.00000, 120.177, -35.2706, 120.397, -155.788, 119.455, 84.2881, 2.25073E-006, 114.728, 52.3301, 117.76, 71.9229, 10.1462, 77.1694, -124.921, 4.84987, 117.628
9, 1200.00000, 119.596, -35.4078, 119.78, -155.95, 118.815, 84.1528, 2.24347E-006, 114.05, 51.1289, 117.845, 71.9941, 10.0545, 76.5159, -125.806, 4.82914, 117.67
9, 1800.00000, 118.725, -35.618, 118.846, -156.188, 117.869, 83.955, 2.20827E-006, 115.062, 49.777, 117.893, 72.1553, 9.4907, 75.5157, -127.22, 4.78042, 117.431
9, 2400.00000, 118.893, -35.5781, 119, -156.155, 118.019, 83.9976, 2.2348E-006, 114.343, 49.8784, 118.02, 72.6857, 9.43649, 75.763, -127.394, 4.80752, 118.045
9, 3000.00000, 120.353, -35.2059, 120.462, -155.774, 119.489, 84.3752, 2.25376E-006, 116.478, 49.8498, 118.37, 72.5679, 9.82974, 75.5918, -126.9, 4.84986, 120.048
10, 0.00000, 119.259, -35.4831, 119.327, -156.068, 118.356, 84.1081, 2.223E-006, 116.912, 49.1868, 118.496, 72.7341, 9.38321, 74.9093, -127.76, 4.79299, 120.359
10, 600.00000, 119.467, -35.4229, 119.502, -156.027, 118.513, 84.1725, 2.23658E-006, 117.938, 48.4653, 118.676, 73.1432, 9.34045, 74.7099, -128.433, 4.81743, 120.954
10, 1200.00000, 120.611, -35.1253, 120.65, -155.73, 119.648, 84.4681, 2.26072E-006, 118.438, 48.1941, 118.761, 73.0984, 9.67717, 74.7728, -128.286, 4.87063, 121.446
10, 1800.00000, 121.574, -34.9113, 121.566, -155.504, 120.607, 84.7077, 2.29948E-006, 119.943, 48.9839, 120.033, 74.0366, 9.6404, 74.6774, -127.835, 4.9536, 122.598
10, 2400.00000, 118.954, -35.5565, 118.924, -156.187, 117.929, 84.0535, 2.24749E-006, 118.594, 48.0077, 119.006, 74.2191, 8.83455, 74.5542, -129.563, 4.83348, 122.18
10, 3000.00000, 119.233, -35.4842, 119.218, -156.106, 118.229, 84.1247, 2.24534E-006, 118.514, 47.9639, 119.059, 73.7936, 9.0454, 74.3264, -129.206, 4.82476, 122.561
11, 0.00000, 119.108, -35.5048, 119.07, -156.131, 118.084, 84.1121, 2.21213E-006, 119.363, 47.0436, 119.07, 73.1959, 8.86181, 73.3726, -129.742, 4.76812, 122.413
11, 600.00000, 120.302, -35.1879, 120.286, -155.791, 119.321, 84.4341, 2.18953E-006, 120.585, 46.2008, 119.235, 71.4621, 9.35078, 71.9459, -129.068, 4.71622, 123.528
11, 1200.00000, 118.553, -35.6229, 118.475, -156.233, 117.541, 84.0246, 2.10756E-006, 120.432, 44.5698, 119.456, 70.3306, 8.53762, 69.6007, -130.384, 4.54287, 123.98
11, 1800.00000, 118.872, -35.5279, 118.791, -156.127, 117.875, 84.1281, 2.07172E-006, 120.684, 43.5882, 119.524, 68.9726, 8.59525, 68.1867, -130.41, 4.45977, 124.344
11, 2400.00000, 118.864, -35.5154, 118.758, -156.097, 117.886, 84.1644, 2.00162E-006, 121.941, 42.0617, 119.877, 66.9511, 8.38405, 65.5691, -130.688, 4.31072, 126.04
11, 3000.00000, 119.476, -35.3453, 119.381, -155.918, 118.514, 84.3354, 1.97894E-006, 122.837, 41.1582, 119.899, 65.6849, 8.70347, 64.5151, -130.498, 4.26027, 126.169
12, 0.00000, 123.157, -34.4359, 123.054, -154.97, 122.235, 85.2669, 2.03791E-006, 123.647, 41.9516, 121.144, 65.6562, 9.25963, 64.2419, -128.982, 4.38946, 127.8
12, 600.00000, 121.791, -34.779, 121.647, -155.303, 120.882, 84.951, 1.97125E-006, 126.905, 41.101, 121.677, 64.5143, 8.65388, 62.0543, -129.454, 4.25012, 130.555
12, 1200.00000, 120.873, -35.0121, 120.711, -155.52, 119.995, 84.7374, 1.91999E-006, 129.095, 40.6518, 122, 63.3665, 8.23913, 60.3737, -129.467, 4.13911, 132.473
12, 1800.00000, 121.216, -34.9242, 121.027, -155.418, 120.352, 84.8468, 1.90317E-006, 131.544, 40.1479, 122.441, 62.5466, 7.94027, 58.912, -129.555, 4.09668, 134.954
12, 2400.00000, 122.154, -34.6941, 121.959, -155.177, 121.303, 85.0854, 1.92637E-006, 132.889, 40.5606, 122.618, 62.7187, 7.88269, 58.9102, -129.243, 4.14014, 136.328
12, 3000.00000, 123.047, -34.4728, 122.887, -154.969, 122.18, 85.2803, 1.97845E-006, 130.562, 41.4873, 122.101, 64.0287, 8.41263, 61.1279, -128.871, 4.2511, 133.583
13, 0.00000, 123.35, -34.3955, 123.172, -154.884, 122.488, 85.3707, 1.96436E-006, 131.678, 41.1096, 122.375, 63.5418, 8.24481, 60.2201, -128.975, 4.22876, 135.099
13, 600.00000, 122.221, -34.6817, 122.093, -155.195, 121.339, 85.0467, 1.99209E-006, 127.378, 42.0548, 121.599, 64.9124, 8.68956, 62.74, -128.825, 4.28969, 130.707
13, 1200.00000, 123.107, -34.477, 122.952, -154.98, 122.233, 85.2691, 2.0276E-006, 129.448, 42.9879, 122.041, 65.7896, 8.39849, 62.9599, -128.585, 4.37003, 133.568
13, 1800.00000, 122.107, -34.75, 121.934, -155.245, 121.253, 85.0098, 2.03801E-006, 132.445, 44.0598, 122.317, 66.5088, 7.92216, 63.1088, -128.382, 4.38691, 135.616
13, 2400.00000, 121.95, -34.8133, 121.959, -155.389, 121.017, 84.808, 2.28383E-006, 118.856, 48.9358, 119.966, 73.2091, 9.72562, 74.1745, -127.422, 4.91571, 122.479
13, 3000.00000, 121.454, -34.9684, 121.488, -155.552, 120.526, 84.6358, 2.35411E-006, 118.394, 51.3337, 119.811, 75.6405, 9.67348, 77.0526, -126.989, 5.06515, 122.012
14, 0.00000, 121.088, -35.0735, 121.198, -155.689, 120.144, 84.4769, 2.46631E-006, 117.046, 54.2969, 118.456, 79.1092, 9.77928, 82.2265, -126.914, 5.30804, 120.592
14, 600.00000, 120.479, -35.2691, 120.612, -155.872, 119.58, 84.2765, 2.50815E-006, 117.597, 57.1812, 118.506, 81.1545, 9.52327, 84.598, -126.178, 5.39903, 121.352
14, 1200.00000, 120.139, -35.3792, 120.285, -155.982, 119.254, 84.1598, 2.54595E-006, 118.728, 58.889, 118.5, 82.6862, 9.41133, 86.3324, -125.887, 5.48003, 121.542
14, 1800.00000, 119.701, -35.5372, 119.81, -156.133, 118.827, 84.022, 2.58518E-006, 120.297, 61.5856, 118.868, 85.294, 8.69505, 88.04, -125.768, 5.56578, 124.116
14, 2400.00000, 121.961, -35.0021, 122.083, -155.544, 121.178, 84.5802, 2.64447E-006, 122.681, 63.7786, 119.911, 85.6245, 9.07401, 88.5285, -123.959, 5.69359, 125.395
14, 3000.00000, 119.451, -35.6278, 119.59, -156.196, 118.646, 83.9328, 2.58991E-006, 122.077, 63.5291, 118.836, 85.7981, 8.54779, 89.0676, -124.959, 5.57931, 124.615
15, 0.00000, 119.878, -35.5549, 120.096, -156.066, 119.217, 84.0032, 2.6053E-006, 122.903, 66.6007, 118.792, 85.887, 8.68237, 90.6419, -123.147, 5.60791, 125.603
15, 600.00000, 121.302, -35.2083, 121.541, -155.689, 120.7, 84.3577, 2.64425E-006, 124.323, 68.3352, 118.925, 86.375, 8.71199, 91.5943, -122.275, 5.69012, 126.912
15, 1200.00000, 121.937, -35.076, 122.116, -155.525, 121.367, 84.535, 2.63287E-006, 125.288, 68.5774, 120.082, 85.959, 8.5071, 89.7912, -121.616, 5.67203, 128.997
15, 1800.00000, 121.826, -35.1214, 122.009, -155.544, 121.312, 84.5032, 2.62132E-006, 126.857, 69.5939, 120.187, 85.8026, 8.27559, 89.6564, -121.057, 5.64686, 130.432
15, 2400.00000, 122.449, -34.9715, 122.66, -155.363, 122.003, 84.6591, 2.61274E-006, 127.249, 70.494, 120.191, 85.2207, 8.28551, 89.6731, -120.255, 5.63193, 131.06
15, 3000.00000, 123.076, -34.8385, 123.423, -155.142, 122.852, 84.7823, 2.57546E-006, 126.632, 73.6948, 119.751, 83.5214, 8.50381, 91.0708, -117.786, 5.54769, 130.18
16, 0.00000, 121.366, -35.2919, 121.755, -155.566, 121.222, 84.3249, 2.5247E-006, 126.096, 74.9253, 119.456, 83.0203, 8.28461, 91.5107, -117.202, 5.44311, 129.703
16, 600.00000, 119.996, -35.6465, 120.484, -155.891, 119.959, 83.9433, 2.48283E-006, 125.589, 76.7609, 118.406, 82.5235, 8.12014, 93.2137, -116.638, 5.3524, 129.259
16, 1200.00000, 119.69, -35.7297, 120.187, -155.965, 119.673, 83.86, 2.47563E-006, 125.905, 77.0365, 118.352, 82.341, 8.07428, 93.2667, -116.471, 5.32726, 129.217
16, 1800.00000, 119.762, -35.7397, 120.299, -155.945, 119.823, 83.8494, 2.49017E-006, 126.058, 79.3889, 118.308, 83.0663, 7.97845, 94.9469, -115.707, 5.36525, 129.747
16, 2400.00000, 119.826, -35.734, 120.358, -155.932, 119.902, 83.8616, 2.51077E-006, 127.799, 80.0422, 118.404, 83.476, 7.85112, 95.2245, -115.565, 5.4022, 130.743
16, 3000.00000, 120.136, -35.6754, 120.669, -155.856, 120.253, 83.9303, 2.56275E-006, 129.066, 81.4934, 118.557, 84.2025, 7.6685, 95.9571, -115.129, 5.52294, 132.678
17, 0.00000, 120.37, -35.6293, 120.9, -155.783, 120.539, 83.9943, 2.56592E-006, 131.037, 82.2965, 118.73, 83.9491, 7.43161, 95.6337, -114.592, 5.53072, 134.637
17, 600.00000, 120.435, -35.6266, 120.931, -155.769, 120.62, 84.02, 2.62212E-006, 134.463, 82.6885, 119.016, 84.1533, 7.0867, 94.993, -114.404, 5.63889, 137.444
17, 1200.00000, 119.827, -35.7881, 120.314, -155.914, 120.043, 83.8721, 2.60498E-006, 135.097, 82.5506, 119.067, 83.4114, 6.83102, 94.0217, -114.168, 5.61706, 138.718
17, 1800.00000, 120.888, -35.5282, 121.322, -155.61, 121.167, 84.182, 2.65458E-006, 138.927, 81.8884, 120.03, 81.4884, 6.62111, 91.0068, -112.939, 5.70658, 141.934
17, 2400.00000, 120.64, -35.6065, 121.058, -155.673, 120.95, 84.1193, 2.73297E-006, 141.133, 82.4945, 120.174, 81.6237, 6.31337, 90.7266, -112.632, 5.87118, 144.037
17, 3000.00000, 122.634, -35.1195, 123.017, -155.172, 122.982, 84.6323, 2.98168E-006, 144.546, 84.0793, 120.729, 82.9577, 6.09801, 91.0979, -111.959, 6.43366, 148.072
18, 0.00000, 124.404, -34.2943, 124.733, -154.34, 124.753, 85.4853, 3.15498E-006, 147.429, 86.3249, 122.202, 85.5399, 6.63331, 92.3687, -110.966, 6.78442, 150.642
18, 600.00000, 124.874, -32.8721, 125.182, -152.901, 125.268, 86.9255, 3.37488E-006, 151.129, 88.597, 123.797, 87.3274, 7.65241, 93.5816, -109.166, 7.25818, 154.362
18, 1200.00000, 125.126, -32.4276, 125.42, -152.451, 125.532, 87.3796, 3.43224E-006, 152.437, 89.3973, 124.318, 87.981, 7.90806, 93.9109, -108.647, 7.37363, 155.642
18, 1800.00000, 125.025, -32.5101, 125.31, -152.525, 125.447, 87.3057, 3.47286E-006, 153.021, 93.4504, 124.382, 91.7918, 7.60518, 97.4561, -108.77, 7.4813, 156.348
18, 2400.00000, 125.348, -32.4268, 125.634, -152.447, 125.758, 87.386, 3.44895E-006, 152.813, 93.8713, 124.402, 92.4136, 7.6841, 98.1046, -108.888, 7.42753, 156.071
18, 3000.00000, 125.539, -32.3943, 125.823, -152.417, 125.942, 87.4187, 3.42702E-006, 152.716, 95.359, 124.427, 94.0052, 7.65965, 99.6435, -109.044, 7.38015, 155.981
19, 0.00000, 125.306, -32.5134, 125.58, -152.528, 125.721, 87.3084, 3.44218E-006, 153.261, 99.4962, 124.461, 97.9143, 7.36158, 103.29, -109.223, 7.41157, 156.547
19, 600.00000, 125.355, -32.522, 125.615, -152.531, 125.772, 87.3103, 3.42592E-006, 154.318, 100.95, 124.548, 99.2731, 7.19258, 104.295, -109.304, 7.34268, 157.126
19, 1200.00000, 125.566, -32.4558, 125.813, -152.463, 125.979, 87.3841, 3.37923E-006, 154.31, 100.055, 124.643, 98.3753, 7.15961, 103.121, -109.254, 7.2765, 157.577
19, 1800.00000, 124.847, -32.4415, 125.087, -152.444, 125.253, 87.4051, 3.246E-006, 154.434, 98.877, 124.785, 97.077, 7.21511, 101.708, -109.196, 6.98143, 157.672
19, 2400.00000, 124.92, -32.4005, 125.138, -152.396, 125.324, 87.4617, 3.17571E-006, 155.545, 96.8534, 124.932, 94.9357, 7.09012, 99.0603, -109.088, 6.82758, 158.589
19, 3000.00000, 124.88, -32.4025, 125.097, -152.399, 125.276, 87.4605, 3.12143E-006, 155.315, 96.156, 124.934, 94.2955, 7.09974, 98.3885, -109.14, 6.71936, 158.48
20, 0.00000, 124.751, -32.4298, 124.962, -152.424, 125.148, 87.4375, 3.08691E-006, 155.268, 95.4382, 124.953, 93.5109, 7.04754, 97.4899, -109.109, 6.66829, 158.702
