hour, t(sec), V1, VAngle1, V2, VAngle2, I1, IAngle1, I2, IAngle2
0, 600.00000, 7602.17, 118.37, 0, 0, 0.715443, 92.8025, 0.715443, -87.1974
0, 1200.00000, 7537.17, 118.073, 0, 0, 0.716131, 92.0295, 0.716131, -87.9704
0, 1800.00000, 7558.04, 118.17, 0, 0, 0.729472, 92.0514, 0.729471, -87.9486
0, 2400.00000, 7554.16, 118.152, 0, 0, 0.731548, 92.0265, 0.731548, -87.9734
0, 3000.00000, 7564.78, 118.2, 0, 0, 0.72827, 92.6373, 0.728269, -87.3626
1, 0.00000, 7550.48, 118.135, 0, 0, 0.721824, 92.0562, 0.721823, -87.9437
1, 600.00000, 7558.34, 118.17, 0, 0, 0.708928, 92.7003, 0.708928, -87.2997
1, 1200.00000, 7562.3, 118.188, 0, 0, 0.700736, 92.7475, 0.700736, -87.2525
1, 1800.00000, 7573.99, 118.242, 0, 0, 0.688036, 92.8369, 0.688036, -87.1631
1, 2400.00000, 7556.97, 118.163, 0, 0, 0.674237, 92.8445, 0.674237, -87.1555
1, 3000.00000, 7574.34, 118.243, 0, 0, 0.662923, 92.9453, 0.662923, -87.0546
2, 0.00000, 7552.36, 118.142, 0, 0, 0.662108, 92.8826, 0.662108, -87.1174
2, 600.00000, 7582, 118.279, 0, 0, 0.665603, 92.9569, 0.665603, -87.043
2, 1200.00000, 7564.82, 118.199, 0, 0, 0.662568, 92.9182, 0.662568, -87.0818
2, 1800.00000, 7582.99, 118.283, 0, 0, 0.663244, 92.97, 0.663243, -87.03
2, 2400.00000, 7557.11, 118.164, 0, 0, 0.667068, 92.8757, 0.667067, -87.1243
2, 3000.00000, 7571.43, 118.23, 0, 0, 0.6688, 92.9114, 0.6688, -87.0885
3, 0.00000, 7567.61, 118.212, 0, 0, 0.668648, 92.9003, 0.668648, -87.0996
3, 600.00000, 7578.13, 118.261, 0, 0, 0.66905, 92.9305, 0.66905, -87.0694
3, 1200.00000, 7560.69, 118.181, 0, 0, 0.68633, 92.8041, 0.686329, -87.1958
3, 1800.00000, 7572.92, 118.238, 0, 0, 0.704726, 92.7626, 0.704725, -87.2373
3, 2400.00000, 7564.18, 118.197, 0, 0, 0.717509, 92.6817, 0.717509, -87.3183
3, 3000.00000, 7574.36, 118.245, 0, 0, 0.740582, 92.6144, 0.740582, -87.3856
4, 0.00000, 7552.9, 118.147, 0, 0, 0.769189, 91.851, 0.769188, -88.149
4, 600.00000, 7574.54, 118.248, 0, 0, 0.795616, 91.8171, 0.795616, -88.1828
4, 1200.00000, 7557.09, 118.167, 0, 0, 0.810652, 91.6799, 0.810652, -88.3201
4, 1800.00000, 7568.99, 118.223, 0, 0, 0.84797, 91.5587, 0.84797, -88.4412
4, 2400.00000, 7559.34, 118.179, 0, 0, 0.85299, 91.4976, 0.85299, -88.5023
4, 3000.00000, 7556.43, 118.165, 0, 0, 0.855077, 91.4766, 0.855076, -88.5234
5, 0.00000, 7559.18, 118.178, 0, 0, 0.862323, 91.4546, 0.862322, -88.5454
5, 600.00000, 7560.04, 118.182, 0, 0, 0.8694, 91.4261, 0.8694, -88.5738
5, 1200.00000, 7567.58, 118.217, 0, 0, 0.874731, 91.4321, 0.874731, -88.5678
5, 1800.00000, 7555.09, 118.16, 0, 0, 0.879457, 91.3613, 0.879456, -88.6387
5, 2400.00000, 7526.42, 118.029, 0, 0, 0.872271, 91.2817, 0.872271, -88.7183
5, 3000.00000, 7499.99, 117.906, 0, 0, 0.846733, 91.2912, 0.846733, -88.7088
6, 0.00000, 7580.45, 118.279, 0, 0, 0.851296, 91.5923, 0.851296, -88.4077
6, 600.00000, 7529.77, 118.045, 0, 0, 0.843454, 91.4257, 0.843454, -88.5743
6, 1200.00000, 7399.73, 117.447, 0, 0, 0.832397, 90.3316, 0.832397, -89.6683
6, 1800.00000, 7526.73, 118.034, 0, 0, 0.850189, 91.386, 0.850189, -88.6139
6, 2400.00000, 7292.65, 117.086, 0, 0, 0.837184, 89.8893, 0.837184, -90.1107
6, 3000.00000, 7141.35, 116.435, 0, 0, 0.842229, 89.1264, 0.842228, -90.8736
7, 0.00000, 7115.93, 116.324, 0, 0, 0.846563, 88.9789, 0.846563, -91.0211
7, 600.00000, 7104.76, 116.275, 0, 0, 0.871176, 88.8012, 0.871176, -91.1988
7, 1200.00000, 7124.51, 116.362, 0, 0, 0.880371, 88.8542, 0.88037, -91.1457
7, 1800.00000, 7103.58, 116.271, 0, 0, 0.890517, 88.6995, 0.890517, -91.3005
7, 2400.00000, 7132.94, 116.4, 0, 0, 0.926032, 88.6709, 0.926031, -91.329
7, 3000.00000, 7088.71, 116.208, 0, 0, 0.990363, 88.1306, 0.990363, -91.8694
8, 0.00000, 7090.18, 116.215, 0, 0, 1.01401, 88.0211, 1.01401, -91.9789
8, 600.00000, 7092.02, 116.224, 0, 0, 1.0143, 88.0293, 1.0143, -91.9707
8, 1200.00000, 7076.93, 116.158, 0, 0, 1.00767, 87.9858, 1.00767, -92.0142
8, 1800.00000, 7080.19, 116.173, 0, 0, 1.03362, 87.874, 1.03362, -92.126
8, 2400.00000, 7103.62, 116.276, 0, 0, 1.03846, 87.9702, 1.03846, -92.0298
8, 3000.00000, 7065.18, 116.108, 0, 0, 1.02804, 87.8258, 1.02804, -92.1742
9, 0.00000, 7077.81, 116.164, 0, 0, 1.03113, 87.8755, 1.03113, -92.1244
9, 600.00000, 7076.03, 116.156, 0, 0, 1.0319, 87.8628, 1.0319, -92.1372
9, 1200.00000, 7046.63, 116.027, 0, 0, 1.02717, 87.7362, 1.02717, -92.2637
9, 1800.00000, 7003.27, 115.837, 0, 0, 1.01916, 87.5546, 1.01916, -92.4454
9, 2400.00000, 7011.23, 115.872, 0, 0, 1.01939, 87.5941, 1.01939, -92.4058
9, 3000.00000, 7080.9, 116.177, 0, 0, 1.01042, 87.9946, 1.01042, -92.0054
10, 0.00000, 7027.53, 115.943, 0, 0, 0.995709, 87.796, 0.995708, -92.204
10, 600.00000, 7036.46, 115.983, 0, 0, 0.994993, 87.8452, 0.994992, -92.1547
10, 1200.00000, 7090.97, 116.222, 0, 0, 1.00136, 88.0911, 1.00136, -91.9089
10, 1800.00000, 7136.09, 116.419, 0, 0, 1.00624, 88.2955, 1.00624, -91.7044
10, 2400.00000, 7010.85, 115.87, 0, 0, 0.985742, 87.7611, 0.985742, -92.2388
10, 3000.00000, 7024.22, 115.929, 0, 0, 0.980434, 87.8557, 0.980433, -92.1443
11, 0.00000, 7017.29, 115.898, 0, 0, 0.97093, 87.8681, 0.97093, -92.1319
11, 600.00000, 7073.75, 116.145, 0, 0, 0.950756, 88.2548, 0.950756, -91.7451
11, 1200.00000, 6988.1, 115.769, 0, 0, 0.911671, 88.0175, 0.911671, -91.9824
11, 1800.00000, 7002.51, 115.832, 0, 0, 0.892514, 88.1865, 0.892514, -91.8134
11, 2400.00000, 7000.5, 115.822, 0, 0, 0.847477, 88.4031, 0.847477, -91.5968
11, 3000.00000, 7029.02, 115.947, 0, 0, 0.837321, 88.5968, 0.837321, -91.4032
12, 0.00000, 7205.08, 116.717, 0, 0, 0.848291, 89.4159, 0.848291, -90.584
12, 600.00000, 7138.28, 116.424, 0, 0, 0.79241, 89.3618, 0.79241, -90.6381
12, 1200.00000, 7093.66, 116.228, 0, 0, 0.750776, 89.3493, 0.750776, -90.6506
12, 1800.00000, 7109.43, 116.297, 0, 0, 0.716192, 89.5991, 0.716192, -90.4009
12, 2400.00000, 7154.8, 116.495, 0, 0, 0.708968, 89.856, 0.708968, -90.1439
12, 3000.00000, 7198.88, 116.689, 0, 0, 0.760817, 89.8148, 0.760817, -90.1851
13, 0.00000, 7212.95, 116.75, 0, 0, 0.740038, 89.9856, 0.740038, -90.0144
13, 600.00000, 7159.97, 116.519, 0, 0, 0.798378, 89.439, 0.798378, -90.561
13, 1200.00000, 7203.15, 116.707, 0, 0, 0.781407, 89.7345, 0.781407, -90.2655
13, 1800.00000, 7155.85, 116.5, 0, 0, 0.758031, 89.618, 0.758031, -90.382
13, 2400.00000, 7154.34, 116.499, 0, 0, 1.00047, 88.4162, 1.00047, -91.5837
13, 3000.00000, 7132.91, 116.405, 0, 0, 1.03357, 88.1449, 1.03357, -91.8551
14, 0.00000, 7120.15, 116.352, 0, 0, 1.09523, 87.7772, 1.09523, -92.2227
14, 600.00000, 7093.74, 116.236, 0, 0, 1.10443, 87.5959, 1.10443, -92.4041
14, 1200.00000, 7079.11, 116.172, 0, 0, 1.11763, 87.4552, 1.11763, -92.5447
14, 1800.00000, 7060.36, 116.089, 0, 0, 1.10393, 87.426, 1.10392, -92.574
14, 2400.00000, 7169.55, 116.567, 0, 0, 1.11424, 87.9363, 1.11424, -92.0637
14, 3000.00000, 7050.5, 116.046, 0, 0, 1.10014, 87.3935, 1.10014, -92.6065
15, 0.00000, 7074.61, 116.151, 0, 0, 1.09381, 87.5486, 1.0938, -92.4514
15, 600.00000, 7144.96, 116.458, 0, 0, 1.09412, 87.9082, 1.09412, -92.0918
15, 1200.00000, 7173.67, 116.582, 0, 0, 1.06368, 88.203, 1.06368, -91.797
15, 1800.00000, 7169.37, 116.563, 0, 0, 1.03939, 88.2996, 1.03939, -91.7004
15, 2400.00000, 7200.61, 116.699, 0, 0, 1.02925, 88.5072, 1.02925, -91.4928
15, 3000.00000, 7235.52, 116.85, 0, 0, 1.02821, 88.6878, 1.02821, -91.3122
16, 0.00000, 7154.89, 116.498, 0, 0, 1.01346, 88.3515, 1.01346, -91.6484
16, 600.00000, 7093.35, 116.228, 0, 0, 1.00173, 88.0971, 1.00173, -91.9029
16, 1200.00000, 7079.01, 116.165, 0, 0, 0.997378, 88.0457, 0.997378, -91.9542
16, 1800.00000, 7085.2, 116.192, 0, 0, 0.997274, 88.0773, 0.997274, -91.9226
16, 2400.00000, 7088.85, 116.208, 0, 0, 0.990385, 88.13, 0.990385, -91.87
16, 3000.00000, 7105.09, 116.278, 0, 0, 0.984332, 88.242, 0.984332, -91.758
17, 0.00000, 7117.15, 116.33, 0, 0, 0.957186, 88.4368, 0.957186, -91.5632
17, 600.00000, 7120.19, 116.343, 0, 0, 0.930691, 88.5829, 0.93069, -91.4171
17, 1200.00000, 7090.77, 116.214, 0, 0, 0.904929, 88.5626, 0.904929, -91.4374
17, 1800.00000, 7139.25, 116.424, 0, 0, 0.866015, 88.9967, 0.866015, -91.0033
17, 2400.00000, 7127.66, 116.373, 0, 0, 0.850284, 89.0166, 0.850283, -90.9833
17, 3000.00000, 7224.51, 116.796, 0, 0, 0.850814, 89.4932, 0.850813, -90.5067
18, 0.00000, 7418.06, 117.535, 0, 0, 0.866745, 90.2652, 0.866745, -89.7348
18, 600.00000, 7704.96, 118.837, 0, 0, 0.879946, 92.4173, 0.879946, -87.5826
18, 1200.00000, 7797.07, 119.247, 0, 0, 0.868067, 93.2493, 0.868067, -86.7507
18, 1800.00000, 7796.03, 119.242, 0, 0, 0.859556, 93.2795, 0.859556, -86.7205
18, 2400.00000, 7813.21, 119.319, 0, 0, 0.860951, 93.3148, 0.86095, -86.6852
18, 3000.00000, 7824.66, 119.37, 0, 0, 0.857427, 93.3552, 0.857427, -86.6447
19, 0.00000, 7816.97, 119.336, 0, 0, 0.843981, 93.3886, 0.84398, -86.6114
19, 600.00000, 7821.02, 119.353, 0, 0, 0.819744, 93.4914, 0.819743, -86.5086
19, 1200.00000, 7830.88, 119.397, 0, 0, 0.800378, 93.5878, 0.800378, -86.4122
19, 1800.00000, 7832.58, 119.403, 0, 0, 0.771218, 93.7023, 0.771218, -86.2976
19, 2400.00000, 7834.12, 119.41, 0, 0, 0.73112, 93.8596, 0.73112, -86.1404
19, 3000.00000, 7831.39, 119.397, 0, 0, 0.722561, 93.8857, 0.72256, -86.1143
20, 0.00000, 7823.91, 119.364, 0, 0, 0.711534, 93.9107, 0.711534, -86.0892
20, 600.00000, 7830.72, 119.394, 0, 0, 0.703107, 93.9593, 0.703107, -86.0407
20, 1200.00000, 7824.22, 119.365, 0, 0, 0.689641, 93.9953, 0.68964, -86.0047
20, 1800.00000, 7828.44, 119.385, 0, 0, 0.732265, 93.842, 0.732265, -86.1579
20, 2400.00000, 7822.73, 119.359, 0, 0, 0.730984, 93.8337, 0.730984, -86.1663
20, 3000.00000, 7820.96, 119.351, 0, 0, 0.722463, 93.8626, 0.722463, -86.1374
21, 0.00000, 7841.2, 119.441, 0, 0, 0.711709, 93.9495, 0.711709, -86.0504
21, 600.00000, 7837.49, 119.425, 0, 0, 0.703157, 93.974, 0.703157, -86.0259
21, 1200.00000, 7846.29, 119.464, 0, 0, 0.689856, 94.0447, 0.689856, -85.9552
21, 1800.00000, 7843.51, 119.451, 0, 0, 0.67644, 94.0899, 0.676439, -85.9101
21, 2400.00000, 7836.83, 119.422, 0, 0, 0.664211, 94.1221, 0.664211, -85.8779
21, 3000.00000, 7838.71, 119.43, 0, 0, 0.664228, 94.1263, 0.664228, -85.8736
22, 0.00000, 7833.87, 119.409, 0, 0, 0.666618, 94.1065, 0.666618, -85.8935
22, 600.00000, 7846.36, 119.464, 0, 0, 0.664298, 94.1432, 0.664298, -85.8568
22, 1200.00000, 7842.57, 119.447, 0, 0, 0.664264, 94.1349, 0.664263, -85.8651
22, 1800.00000, 7833.89, 119.409, 0, 0, 0.669053, 94.0973, 0.669052, -85.9026
22, 2400.00000, 7846.34, 119.464, 0, 0, 0.670384, 94.12, 0.670384, -85.88
22, 3000.00000, 7843.5, 119.452, 0, 0, 0.670353, 94.1135, 0.670353, -85.8865
23, 0.00000, 7840.95, 119.44, 0, 0, 0.654511, 94.1686, 0.654511, -85.8314
23, 600.00000, 7841.84, 119.444, 0, 0, 0.665474, 94.1287, 0.665474, -85.8712
23, 1200.00000, 7773.98, 119.141, 0, 0, 0.675824, 93.937, 0.675824, -86.0629
23, 1800.00000, 7757.97, 119.069, 0, 0, 0.663528, 93.9485, 0.663528, -86.0514
23, 2400.00000, 7751.43, 119.042, 0, 0, 0.689011, 93.8365, 0.689011, -86.1635
23, 3000.00000, 7756.4, 119.064, 0, 0, 0.675692, 93.8999, 0.675692, -86.1001
24, 0.00000, 7744.18, 119.009, 0, 0, 0.663394, 93.9192, 0.663394, -86.0807
