hour, t(sec), S1 (kVA), Ang1, S2 (kVA), Ang2, S3 (kVA), Ang3
0, 600.00000, 968.881, 23.6264, 969.195, 23.6209, 974.816, 23.6518
0, 1200.00000, 1142.41, 23.6389, 1142.66, 23.6395, 1148.17, 23.6592
0, 1800.00000, 1086.89, 23.6574, 1087.21, 23.6568, 1092.82, 23.6819
0, 2400.00000, 1097.08, 23.6542, 1097.38, 23.6538, 1103.01, 23.6779
0, 3000.00000, 1069.21, 23.6634, 1069.53, 23.6624, 1075.16, 23.6887
1, 0.00000, 1107.11, 23.651, 1107.39, 23.6508, 1112.95, 23.6733
1, 600.00000, 1086.89, 23.6582, 1087.16, 23.6573, 1092.66, 23.6797
1, 1200.00000, 1076.69, 23.6613, 1076.96, 23.6602, 1082.4, 23.6828
1, 1800.00000, 1046.15, 23.6721, 1046.43, 23.6702, 1051.78, 23.6941
1, 2400.00000, 1091.63, 23.6572, 1091.86, 23.6564, 1097.1, 23.6759
1, 3000.00000, 1046.04, 23.6729, 1046.27, 23.6708, 1051.45, 23.6917
2, 0.00000, 1104.19, 23.6532, 1104.4, 23.6527, 1109.54, 23.6703
2, 600.00000, 1025.66, 23.6791, 1025.93, 23.6768, 1031.12, 23.7002
2, 1200.00000, 1071.23, 23.6641, 1071.48, 23.663, 1076.63, 23.6834
2, 1800.00000, 1023.1, 23.6801, 1023.37, 23.6777, 1028.54, 23.7011
2, 2400.00000, 1091.46, 23.6571, 1091.71, 23.6565, 1096.87, 23.6764
2, 3000.00000, 1053.55, 23.6698, 1053.82, 23.6682, 1059.01, 23.6903
3, 0.00000, 1063.64, 23.6669, 1063.91, 23.6656, 1069.09, 23.6872
3, 600.00000, 1035.79, 23.6757, 1036.07, 23.6737, 1041.27, 23.6972
3, 1200.00000, 1081.37, 23.6597, 1081.67, 23.6592, 1086.96, 23.6824
3, 1800.00000, 1048.39, 23.6695, 1048.77, 23.6687, 1054.18, 23.6977
3, 2400.00000, 1071.1, 23.6612, 1071.52, 23.6614, 1076.99, 23.6913
3, 3000.00000, 1043.37, 23.6696, 1043.86, 23.6694, 1049.49, 23.705
4, 0.00000, 1099.07, 23.6499, 1099.59, 23.6517, 1105.37, 23.6868
4, 600.00000, 1040.94, 23.6682, 1041.57, 23.6688, 1047.54, 23.7129
4, 1200.00000, 1086.6, 23.6526, 1087.23, 23.6548, 1093.29, 23.6971
4, 1800.00000, 1053.87, 23.6622, 1054.62, 23.6639, 1060.94, 23.7147
4, 2400.00000, 1079.24, 23.6538, 1079.97, 23.6563, 1086.32, 23.705
4, 3000.00000, 1086.87, 23.6512, 1087.59, 23.654, 1093.96, 23.7019
5, 0.00000, 1079.36, 23.6533, 1080.1, 23.6558, 1086.52, 23.7051
5, 600.00000, 1076.85, 23.6542, 1077.6, 23.6568, 1084.07, 23.7073
5, 1200.00000, 1056.69, 23.661, 1057.46, 23.6628, 1063.98, 23.7155
5, 1800.00000, 1089.61, 23.6499, 1090.35, 23.6528, 1096.9, 23.7028
5, 2400.00000, 1162.74, 23.6253, 1163.42, 23.6302, 1169.89, 23.6725
5, 3000.00000, 1235.38, 23.6357, 1235.98, 23.6426, 1242.23, 23.6768
6, 0.00000, 1020.86, 23.6779, 1021.67, 23.6763, 1028.04, 23.7336
6, 600.00000, 1154.83, 23.6315, 1155.54, 23.6367, 1161.76, 23.6794
6, 1200.00000, 1492.42, 23.6151, 1492.92, 23.6281, 1498.89, 23.6486
6, 1800.00000, 1164.5, 23.6987, 1165.26, 23.7055, 1171.48, 23.749
6, 2400.00000, 1738.8, 23.6265, 1739.19, 23.6454, 1745.06, 23.6582
6, 3000.00000, 2149.57, 23.6414, 2149.76, 23.6668, 2155.36, 23.6696
7, 0.00000, 2221.24, 23.6481, 2221.41, 23.6751, 2226.94, 23.6762
7, 600.00000, 2250.23, 23.6358, 2250.41, 23.6648, 2256.04, 23.666
7, 1200.00000, 2197.29, 23.6558, 2197.54, 23.686, 2203.21, 23.6887
7, 1800.00000, 2252.75, 23.6339, 2252.97, 23.6658, 2258.64, 23.667
7, 2400.00000, 2173.32, 23.6637, 2173.66, 23.6974, 2179.54, 23.7024
7, 3000.00000, 2293.39, 23.648, 2293.78, 23.6879, 2299.82, 23.6949
8, 0.00000, 2288.7, 23.6489, 2289.14, 23.6912, 2295.26, 23.699
8, 600.00000, 2283.85, 23.6491, 2284.34, 23.6955, 2290.32, 23.7027
8, 1200.00000, 2324.59, 23.6301, 2325.11, 23.684, 2330.73, 23.6882
8, 1800.00000, 2315.06, 23.6325, 2315.64, 23.6889, 2321.36, 23.6945
8, 2400.00000, 2252.42, 23.6533, 2253.16, 23.7178, 2258.66, 23.7244
8, 3000.00000, 2355.55, 23.6129, 2356.2, 23.6793, 2361.45, 23.682
9, 0.00000, 2321.92, 23.6213, 2322.72, 23.6973, 2327.66, 23.6997
9, 600.00000, 2326.68, 23.6188, 2327.5, 23.6971, 2332.36, 23.6989
9, 1200.00000, 2405.57, 23.5872, 2406.34, 23.6677, 2410.98, 23.6667
9, 1800.00000, 2522.08, 23.541, 2522.76, 23.6225, 2527.16, 23.6181
9, 2400.00000, 2500.86, 23.5483, 2501.56, 23.6312, 2505.94, 23.6269
9, 3000.00000, 2314.6, 23.6202, 2315.48, 23.7077, 2319.88, 23.7066
10, 0.00000, 2458.01, 23.5644, 2458.75, 23.6505, 2462.9, 23.645
10, 600.00000, 2434.19, 23.5723, 2434.98, 23.662, 2439.02, 23.6563
10, 1200.00000, 2288.22, 23.627, 2289.19, 23.7215, 2293.29, 23.7193
10, 1800.00000, 2167.54, 23.6746, 2168.61, 23.7722, 2172.81, 23.7707
10, 2400.00000, 2503.22, 23.5446, 2503.95, 23.6365, 2507.76, 23.6278
10, 3000.00000, 2467.56, 23.5585, 2468.32, 23.6505, 2472.13, 23.6425
11, 0.00000, 2486.45, 23.5513, 2487.19, 23.6429, 2490.92, 23.6343
11, 600.00000, 2335.89, 23.6099, 2336.76, 23.7035, 2340.49, 23.6974
11, 1200.00000, 2566.68, 23.5215, 2567.3, 23.6094, 2570.65, 23.5976
11, 1800.00000, 2528.66, 23.5365, 2529.3, 23.6238, 2532.58, 23.6123
11, 2400.00000, 2535.46, 23.5353, 2536.05, 23.6202, 2539.1, 23.6074
11, 3000.00000, 2459.37, 23.5645, 2460.03, 23.6503, 2463.07, 23.6387
12, 0.00000, 1981.03, 23.6798, 1982.06, 23.7745, 1985.46, 23.7711
12, 600.00000, 2160.52, 23.6127, 2161.31, 23.7016, 2164.3, 23.691
12, 1200.00000, 2289.22, 23.6342, 2289.87, 23.718, 2292.58, 23.704
12, 1800.00000, 2248.19, 23.651, 2248.82, 23.7344, 2251.36, 23.7195
12, 2400.00000, 2127.33, 23.6977, 2128.02, 23.7831, 2130.58, 23.7695
12, 3000.00000, 2000.37, 23.6759, 2001.2, 23.7653, 2004.14, 23.7544
13, 0.00000, 1963.73, 23.6899, 1964.56, 23.7798, 1967.37, 23.7686
13, 600.00000, 2102.62, 23.635, 2103.44, 23.7236, 2106.55, 23.7145
13, 1200.00000, 1988.43, 23.6796, 1989.29, 23.7706, 1992.35, 23.7602
13, 1800.00000, 2114.9, 23.6323, 2115.59, 23.7195, 2118.49, 23.7065
13, 2400.00000, 2111, 23.6268, 2112.06, 23.7224, 2116.37, 23.7224
13, 3000.00000, 2166.97, 23.6048, 2167.99, 23.7002, 2172.49, 23.6995
14, 0.00000, 2202.91, 23.6243, 2203.98, 23.7222, 2208.79, 23.7256
14, 600.00000, 2277.3, 23.6322, 2278.25, 23.7264, 2283.17, 23.7279
14, 1200.00000, 2315.94, 23.6179, 2316.84, 23.7111, 2321.84, 23.7117
14, 1800.00000, 2366.65, 23.5992, 2367.4, 23.6905, 2372.34, 23.6875
14, 2400.00000, 2070.63, 23.6805, 2071.63, 23.7727, 2077.02, 23.7768
14, 3000.00000, 2393.14, 23.5906, 2393.8, 23.6774, 2398.86, 23.6737
15, 0.00000, 2328.69, 23.6188, 2329.31, 23.699, 2334.68, 23.6974
15, 600.00000, 2140.55, 23.6944, 2141.3, 23.7733, 2146.94, 23.7749
15, 1200.00000, 2061.17, 23.6915, 2061.91, 23.769, 2067.49, 23.7708
15, 1800.00000, 2073.39, 23.6888, 2074.02, 23.7622, 2079.57, 23.7622
15, 2400.00000, 1986.68, 23.6894, 1987.31, 23.758, 1993.05, 23.7608
15, 3000.00000, 1890.06, 23.6985, 1890.62, 23.7493, 1896.99, 23.7591
16, 0.00000, 2108.37, 23.6507, 2108.68, 23.6965, 2114.97, 23.699
16, 600.00000, 2280.81, 23.6562, 2280.93, 23.6956, 2287.25, 23.6966
16, 1200.00000, 2319.21, 23.6421, 2319.28, 23.6801, 2325.59, 23.6802
16, 1800.00000, 2302.62, 23.6505, 2302.64, 23.6838, 2309.14, 23.6847
16, 2400.00000, 2293.06, 23.6549, 2293.06, 23.6875, 2299.56, 23.6879
16, 3000.00000, 2249.89, 23.673, 2249.85, 23.7035, 2256.44, 23.7039
17, 0.00000, 2218.52, 23.6879, 2218.42, 23.7142, 2224.97, 23.7119
17, 600.00000, 2211.28, 23.6919, 2211.1, 23.7176, 2217.52, 23.7128
17, 1200.00000, 2290.7, 23.6616, 2290.4, 23.6861, 2296.68, 23.6801
17, 1800.00000, 2162.62, 23.7146, 2162.29, 23.7338, 2168.54, 23.7262
17, 2400.00000, 2194.13, 23.703, 2193.69, 23.7214, 2199.88, 23.7111
17, 3000.00000, 1924.88, 23.7058, 1924.42, 23.7189, 1930.93, 23.7083
18, 0.00000, 1446.87, 23.7122, 1446.55, 23.7168, 1453.43, 23.7125
18, 600.00000, 689.496, 23.6851, 689.453, 23.6459, 696.996, 23.6906
18, 1200.00000, 440.203, 23.6216, 440.228, 23.5349, 447.92, 23.6301
18, 1800.00000, 443.316, 23.6255, 443.28, 23.5384, 450.939, 23.6254
18, 2400.00000, 396.53, 23.6247, 396.55, 23.5248, 404.226, 23.6317
18, 3000.00000, 365.419, 23.6226, 365.468, 23.5125, 373.121, 23.6335
19, 0.00000, 386.824, 23.6294, 386.806, 23.5269, 394.366, 23.6296
19, 600.00000, 376.581, 23.6311, 376.525, 23.5266, 383.905, 23.6237
19, 1200.00000, 349.573, 23.5929, 349.493, 23.4775, 356.751, 23.5791
19, 1800.00000, 346.816, 23.5919, 346.734, 23.4801, 353.731, 23.576
19, 2400.00000, 343.952, 23.5924, 343.812, 23.4835, 350.49, 23.5648
19, 3000.00000, 351.691, 23.593, 351.556, 23.489, 358.146, 23.5667
20, 0.00000, 372.449, 23.5959, 372.286, 23.5, 378.779, 23.5668
20, 600.00000, 354.173, 23.5939, 354.001, 23.4922, 360.44, 23.5609
20, 1200.00000, 372.365, 23.5972, 372.151, 23.5023, 378.484, 23.5593
20, 1800.00000, 359.391, 23.5914, 359.306, 23.4912, 365.939, 23.5745
20, 2400.00000, 375.007, 23.5933, 374.913, 23.4985, 381.528, 23.5759
20, 3000.00000, 380.118, 23.5935, 380.015, 23.5012, 386.555, 23.5746
21, 0.00000, 325.241, 23.5843, 325.155, 23.4736, 331.629, 23.5637
21, 600.00000, 335.63, 23.5851, 335.578, 23.4821, 341.94, 23.5709
21, 1200.00000, 311.998, 23.5772, 311.98, 23.4682, 318.214, 23.567
21, 1800.00000, 320.009, 23.5803, 319.995, 23.4777, 326.097, 23.571
21, 2400.00000, 338.584, 23.5843, 338.624, 23.4939, 344.558, 23.5846
21, 3000.00000, 333.416, 23.5823, 333.489, 23.4916, 339.403, 23.5882
22, 0.00000, 346.547, 23.5844, 346.645, 23.4991, 352.551, 23.5946
22, 600.00000, 312.483, 23.5744, 312.611, 23.4783, 318.501, 23.5903
22, 1200.00000, 322.861, 23.577, 322.99, 23.4851, 328.87, 23.5929
22, 1800.00000, 346.378, 23.5816, 346.529, 23.4984, 352.418, 23.6008
22, 2400.00000, 312.325, 23.5711, 312.513, 23.4769, 318.413, 23.5984
22, 3000.00000, 320.08, 23.5734, 320.262, 23.4819, 326.161, 23.5992
23, 0.00000, 327.614, 23.5754, 327.757, 23.4875, 333.535, 23.5932
23, 600.00000, 324.804, 23.5714, 325.004, 23.4833, 330.842, 23.5998
23, 1200.00000, 509.059, 23.5771, 509.237, 23.5309, 515.038, 23.5965
23, 1800.00000, 553.948, 23.6061, 554.119, 23.568, 559.775, 23.6238
23, 2400.00000, 569.367, 23.6005, 569.649, 23.5654, 575.433, 23.6301
23, 3000.00000, 556.313, 23.6015, 556.643, 23.5671, 562.285, 23.6363
24, 0.00000, 589.727, 23.5954, 590.053, 23.5656, 595.563, 23.6281
