hour, t(sec), V1, VAngle1, V2, VAngle2, V3, VAngle3, I1, IAngle1, I2, IAngle2, I3, IAngle3
0, 600.00000, 124.229, -32.6477, 124.405, -153.066, 123.684, 87.0155, 11.3764, 117.116, 13.6338, 35.1925, 18.9443, -108.326
0, 1200.00000, 123.022, -32.9571, 123.211, -153.377, 122.485, 86.6994, 11.3869, 116.802, 13.5715, 34.9911, 18.9175, -108.44
0, 1800.00000, 123.424, -32.8511, 123.596, -153.277, 122.862, 86.8077, 11.2959, 116.913, 13.78, 35.0438, 19.0136, -108.932
0, 2400.00000, 123.327, -32.8808, 123.507, -153.308, 122.769, 86.7742, 11.4371, 116.88, 13.8324, 35.0146, 19.155, -108.752
0, 3000.00000, 123.545, -32.8203, 123.717, -153.247, 122.982, 86.8385, 11.3234, 116.944, 13.8118, 35.0607, 19.0565, -108.906
1, 0.00000, 123.274, -32.8914, 123.456, -153.314, 122.727, 86.7662, 11.3655, 116.869, 13.6634, 35.0266, 18.9719, -108.602
1, 600.00000, 123.424, -32.853, 123.611, -153.269, 122.892, 86.8068, 11.3709, 116.907, 13.4996, 35.0687, 18.8447, -108.255
1, 1200.00000, 123.528, -32.8206, 123.711, -153.232, 123, 86.8444, 11.2095, 116.943, 13.3479, 35.1108, 18.6101, -108.289
1, 1800.00000, 123.79, -32.7461, 123.965, -153.15, 123.268, 86.9268, 10.9947, 117.024, 13.1211, 35.1908, 18.2766, -108.263
1, 2400.00000, 123.481, -32.8239, 123.665, -153.22, 122.979, 86.85, 10.9625, 116.944, 12.8817, 35.1656, 18.0693, -107.932
1, 3000.00000, 123.824, -32.7331, 124.008, -153.122, 123.334, 86.9456, 10.895, 117.037, 12.6991, 35.249, 17.8744, -107.646
2, 0.00000, 123.41, -32.8399, 123.598, -153.229, 122.923, 86.8369, 10.8913, 116.928, 12.672, 35.1801, 17.8554, -107.688
2, 600.00000, 123.998, -32.6824, 124.168, -153.073, 123.494, 87.0009, 10.7099, 117.094, 12.7241, 35.2855, 17.7605, -108.069
2, 1200.00000, 123.677, -32.7648, 123.851, -153.154, 123.178, 86.9175, 10.6976, 117.01, 12.6627, 35.2371, 17.7073, -108.042
2, 1800.00000, 124.024, -32.6751, 124.193, -153.065, 123.521, 87.0095, 10.6695, 117.102, 12.681, 35.2962, 17.6979, -108.069
2, 2400.00000, 123.531, -32.802, 123.703, -153.194, 123.026, 86.8791, 10.6909, 116.974, 12.7304, 35.2048, 17.7574, -108.222
2, 3000.00000, 123.795, -32.735, 123.966, -153.128, 123.288, 86.9464, 10.7267, 117.041, 12.7719, 35.2443, 17.8124, -108.169
3, 0.00000, 123.726, -32.7522, 123.896, -153.145, 123.218, 86.9292, 10.7125, 117.024, 12.7654, 35.2336, 17.798, -108.202
3, 600.00000, 123.928, -32.7, 124.095, -153.093, 123.417, 86.983, 10.6798, 117.077, 12.7741, 35.2695, 17.7796, -108.25
3, 1200.00000, 123.598, -32.7835, 123.756, -153.187, 123.062, 86.8961, 10.6487, 116.996, 13.0393, 35.1845, 17.9713, -108.907
3, 1800.00000, 123.859, -32.7087, 123.991, -153.123, 123.283, 86.9744, 10.4198, 117.081, 13.311, 35.2122, 18.0274, -109.885
3, 2400.00000, 123.716, -32.7403, 123.833, -153.162, 123.114, 86.9436, 10.2607, 117.055, 13.4857, 35.1777, 18.0624, -110.602
3, 3000.00000, 123.896, -32.7034, 123.993, -153.138, 123.255, 86.9803, 10.1532, 117.099, 13.8402, 35.1655, 18.2778, -111.468
4, 0.00000, 123.484, -32.8102, 123.569, -153.26, 122.806, 86.8679, 10.1295, 116.994, 14.2386, 35.0566, 18.5958, -112.305
4, 600.00000, 123.891, -32.7088, 123.952, -153.172, 123.169, 86.9702, 10.005, 117.104, 14.6356, 35.0886, 18.841, -113.184
4, 1200.00000, 123.543, -32.8061, 123.599, -153.279, 122.801, 86.8685, 10.0132, 117.007, 14.8699, 35.0008, 19.0471, -113.627
4, 1800.00000, 123.745, -32.7645, 123.775, -153.258, 122.947, 86.9069, 9.94321, 117.055, 15.4392, 34.9777, 19.4822, -114.658
4, 2400.00000, 123.545, -32.8194, 123.579, -153.316, 122.744, 86.8483, 10.0328, 116.997, 15.5338, 34.9308, 19.6208, -114.642
4, 3000.00000, 123.478, -32.8391, 123.515, -153.337, 122.678, 86.8266, 10.0967, 116.976, 15.579, 34.9123, 19.6999, -114.582
5, 0.00000, 123.514, -32.8329, 123.55, -153.335, 122.706, 86.8303, 10.1718, 116.981, 15.7077, 34.9037, 19.8555, -114.606
5, 600.00000, 123.524, -32.8311, 123.558, -153.337, 122.707, 86.8306, 10.1902, 116.983, 15.8217, 34.8951, 19.9638, -114.735
5, 1200.00000, 123.642, -32.8057, 123.678, -153.314, 122.823, 86.8534, 10.3158, 117.006, 15.9319, 34.899, 20.134, -114.603
5, 1800.00000, 123.398, -32.87, 123.436, -153.382, 122.575, 86.7861, 10.3532, 116.94, 16.011, 34.8495, 20.2277, -114.689
5, 2400.00000, 122.87, -33.0088, 122.919, -153.519, 122.06, 86.644, 10.4143, 116.797, 15.9082, 34.7648, 20.1856, -114.508
5, 3000.00000, 123.159, -33.124, 123.212, -153.621, 122.375, 86.5364, 10.2944, 116.684, 15.541, 34.6553, 19.7957, -114.347
6, 0.00000, 124.783, -32.6926, 124.795, -153.164, 124.016, 86.9973, 9.19564, 117.142, 14.9805, 33.9967, 18.4895, -116.413
6, 600.00000, 123.851, -32.945, 123.834, -153.418, 123.073, 86.7561, 8.88442, 116.9, 14.8744, 33.8434, 18.2245, -117.215
6, 1200.00000, 122.949, -33.5653, 122.943, -154.039, 122.182, 86.1313, 8.89425, 116.276, 14.7877, 33.3086, 18.1656, -117.618
6, 1800.00000, 124.59, -32.9483, 124.549, -153.426, 123.788, 86.7595, 8.73735, 116.905, 15.0275, 33.7732, 18.2639, -117.87
6, 2400.00000, 122.64, -34.0408, 122.607, -154.527, 121.837, 85.6588, 8.78366, 115.808, 15.0868, 32.8623, 18.3661, -118.802
6, 3000.00000, 122.471, -34.8522, 122.398, -155.356, 121.618, 84.8524, 8.62477, 115.008, 15.5108, 32.0668, 18.6508, -120.615
7, 0.00000, 121.945, -35.0021, 121.85, -155.513, 121.072, 84.7073, 8.46912, 114.865, 15.6175, 31.9716, 18.6644, -121.267
7, 600.00000, 122.065, -35.163, 121.932, -155.508, 121.478, 84.6426, 8.2358, 114.716, 16.0908, 31.9592, 18.9779, -122.541
7, 1200.00000, 122.516, -35.0549, 122.331, -155.406, 121.89, 84.7681, 7.86096, 114.843, 16.2435, 32.0352, 18.9108, -123.608
7, 1800.00000, 122.079, -35.1849, 121.862, -155.548, 121.419, 84.6444, 7.67791, 114.723, 16.4568, 31.9507, 19.015, -124.435
7, 2400.00000, 122.719, -35.023, 122.441, -155.406, 121.986, 84.8171, 7.35303, 114.904, 17.0347, 32.0524, 19.3758, -125.828
7, 3000.00000, 122.183, -35.189, 121.781, -155.807, 120.949, 84.5792, 6.59607, 114.78, 18.1701, 31.7836, 20.072, -129.18
8, 0.00000, 122.234, -35.1932, 121.769, -155.83, 120.936, 84.5891, 6.22958, 114.797, 18.5988, 31.7809, 20.3199, -130.503
8, 600.00000, 122.417, -35.1775, 121.801, -155.825, 121.024, 84.6615, 4.87983, 114.871, 18.613, 31.8248, 19.8053, -134.018
8, 1200.00000, 122.367, -35.2534, 121.475, -155.92, 120.806, 84.6908, 2.36027, 114.901, 18.5331, 31.842, 18.9636, -141.061
8, 1800.00000, 122.478, -35.236, 121.516, -155.922, 120.843, 84.7246, 1.86337, 114.944, 18.972, 31.8574, 19.2852, -142.638
8, 2400.00000, 123.264, -35.08, 122.013, -155.786, 121.441, 84.987, 0.75414, -64.8129, 19.0249, 32.0219, 18.9499, -150.243
8, 3000.00000, 122.891, -35.3839, 121.549, -155.914, 121.354, 84.8088, 1.69807, -65.0592, 18.9366, 31.9457, 18.8052, -153.196
9, 0.00000, 123.508, -35.286, 121.818, -155.843, 121.748, 85.0343, 4.87015, -64.83, 18.9742, 32.0871, 19.0126, -162.644
9, 600.00000, 123.547, -35.295, 121.772, -155.859, 121.732, 85.0562, 5.61462, -64.8062, 19.0004, 32.0991, 19.1543, -164.819
9, 1200.00000, 123.384, -35.3689, 121.479, -156.127, 121.149, 84.9433, 6.75337, -64.8278, 18.9646, 31.9242, 19.3687, -168.334
9, 1800.00000, 123.229, -35.6134, 121.225, -156.379, 120.932, 84.737, 7.69605, -65.0328, 18.9206, 31.7277, 19.5688, -171.261
9, 2400.00000, 123.436, -35.5718, 121.385, -156.341, 121.111, 84.7953, 8.05561, -64.9753, 18.9405, 31.7612, 19.6936, -172.207
9, 3000.00000, 125.023, -35.1652, 122.894, -155.924, 122.668, 85.2302, 8.68856, -64.5482, 18.7494, 32.0348, 19.7403, -173.893
10, 0.00000, 123.911, -35.4768, 121.744, -156.239, 121.544, 84.9411, 9.13485, -64.8365, 18.5561, 31.8525, 19.705, -175.562
10, 600.00000, 124.219, -35.4229, 121.927, -156.194, 121.774, 85.0402, 10.2215, -64.7386, 18.5537, 31.9136, 20.1192, -178.393
10, 1200.00000, 125.47, -35.1018, 123.099, -155.874, 122.973, 85.3838, 10.8523, -64.3981, 18.6177, 32.1305, 20.456, -179.678
10, 1800.00000, 125.749, -34.8602, 123.346, -155.633, 123.236, 85.6365, 11.0454, -64.1456, 18.6387, 32.3526, 20.5622, -179.904
10, 2400.00000, 123.77, -35.5841, 121.347, -156.366, 121.253, 84.9323, 11.3684, -64.8477, 18.4683, 31.8407, 20.5283, 178.472
10, 3000.00000, 124.06, -35.5026, 121.647, -156.278, 121.557, 85.0112, 11.3046, -64.7712, 18.3616, 31.8924, 20.4149, 178.525
11, 0.00000, 123.946, -35.5299, 121.522, -156.302, 121.444, 84.9923, 11.5352, -64.7912, 18.1783, 31.8855, 20.3654, 177.652
11, 600.00000, 125.207, -35.1805, 122.791, -155.93, 122.738, 85.3416, 11.6012, -64.4504, 17.7498, 32.1163, 20.0636, 177.057
11, 1200.00000, 124.051, -35.6682, 121.652, -156.405, 121.625, 84.8651, 11.743, -64.9322, 17.1832, 31.7575, 19.6507, 175.35
11, 1800.00000, 124.386, -35.563, 122.015, -156.283, 122, 84.9658, 11.6733, -64.8367, 16.8025, 31.8309, 19.3144, 174.94
11, 2400.00000, 124.377, -35.5517, 122.043, -156.242, 122.064, 84.981, 11.6873, -64.833, 15.9945, 31.8543, 18.6783, 173.431
11, 3000.00000, 125.035, -35.3653, 122.703, -156.044, 122.736, 85.1678, 11.792, -64.6496, 15.7636, 31.9816, 18.5637, 172.86
12, 0.00000, 125.977, -34.3759, 123.675, -155.042, 123.709, 86.1452, 11.5213, -63.6768, 15.6263, 32.8717, 18.3264, 174.221
12, 600.00000, 124.621, -34.7416, 122.333, -155.385, 122.421, 85.8, 11.7139, -64.0342, 14.7462, 32.6611, 17.731, 171.655
12, 1200.00000, 124.356, -34.9877, 122.132, -155.605, 122.24, 85.5453, 11.3513, -64.2995, 14.1097, 32.441, 17.0393, 171.021
12, 1800.00000, 124.702, -34.8932, 122.502, -155.487, 122.644, 85.6422, 11.299, -64.2134, 13.5076, 32.5106, 16.5645, 169.868
12, 2400.00000, 125.635, -34.6441, 123.461, -155.226, 123.606, 85.8809, 11.0339, -63.9798, 13.3662, 32.6652, 16.3179, 170.471
12, 3000.00000, 125.824, -34.4103, 123.623, -155.02, 123.723, 86.1061, 11.0018, -63.7417, 14.1802, 32.8643, 16.9181, 172.625
13, 0.00000, 126.13, -34.3301, 123.936, -154.926, 124.06, 86.1905, 11.0467, -63.6638, 13.8189, 32.9236, 16.6723, 171.761
13, 600.00000, 124.999, -34.6308, 122.774, -155.269, 122.836, 85.884, 11.0585, -63.951, 14.8417, 32.7133, 17.4491, 173.702
13, 1200.00000, 125.879, -34.4124, 123.656, -155.036, 123.746, 86.1041, 10.9443, -63.7403, 14.5714, 32.8522, 17.1897, 173.62
13, 1800.00000, 124.853, -34.6961, 122.661, -155.311, 122.767, 85.8214, 10.6829, -64.0297, 14.2496, 32.6683, 16.7829, 173.456
13, 2400.00000, 124.679, -34.756, 122.359, -155.52, 122.231, 85.7201, 10.4957, -64.0631, 18.3809, 32.5475, 20.0897, -178.715
13, 3000.00000, 124.147, -34.9137, 121.832, -155.701, 121.667, 85.5493, 10.0996, -64.2259, 19.0316, 32.4232, 20.4864, -176.896
14, 0.00000, 123.785, -35.0325, 121.449, -155.862, 121.224, 85.4162, 9.76256, -64.3435, 20.1799, 32.3148, 21.3741, -174.664
14, 600.00000, 123.745, -35.2244, 121.524, -156.053, 121.246, 85.1757, 8.41159, -64.5847, 20.5053, 32.0817, 21.2409, -171.08
14, 1200.00000, 123.351, -35.3367, 121.167, -156.174, 120.862, 85.0455, 7.87916, -64.7123, 20.8009, 31.9894, 21.366, -169.495
14, 1800.00000, 123.525, -35.4934, 121.392, -156.322, 121.088, 84.8718, 7.12243, -64.8946, 20.769, 31.7993, 21.1564, -167.734
14, 2400.00000, 125.016, -34.8869, 122.996, -155.696, 122.658, 85.4315, 5.93061, -64.3414, 20.786, 32.2211, 20.9536, -164.11
14, 3000.00000, 123.14, -35.5738, 121.166, -156.39, 120.811, 84.7338, 5.60883, -65.0359, 20.7418, 31.7094, 20.8412, -163.792
15, 0.00000, 123.372, -35.4602, 121.676, -156.247, 121.233, 84.7461, 3.0112, -65.0297, 20.6304, 31.7174, 20.496, -156.672
15, 600.00000, 124.412, -35.1653, 122.473, -155.843, 122.353, 85.1893, 2.05193, -64.6886, 20.5324, 32.0899, 20.3922, -153.645
15, 1200.00000, 124.639, -34.9163, 123.092, -155.66, 122.648, 85.2474, 1.67742, -64.5484, 19.9814, 32.1098, 19.857, -152.703
15, 1800.00000, 124.441, -34.9523, 123.016, -155.674, 122.558, 85.176, 0.653723, -64.6295, 19.5832, 32.0681, 19.5177, -149.838
15, 2400.00000, 124.242, -34.7854, 122.983, -155.486, 122.481, 85.2874, 0.748955, 115.478, 19.3061, 32.2119, 19.4082, -145.592
15, 3000.00000, 123.751, -34.6023, 123.039, -155.259, 122.339, 85.271, 5.52639, 115.456, 19.1345, 32.281, 20.5379, -132.223
16, 0.00000, 121.928, -35.0583, 121.398, -155.705, 120.638, 84.749, 7.03301, 114.934, 18.9559, 31.9499, 21.0085, -128.644
16, 600.00000, 121.782, -35.4117, 121.514, -156.039, 120.658, 84.2972, 9.39989, 114.478, 18.9207, 31.5307, 22.1365, -123.545
16, 1200.00000, 121.427, -35.4965, 121.216, -156.12, 120.342, 84.1917, 9.87374, 114.372, 18.856, 31.4644, 22.3387, -122.52
16, 1800.00000, 121.364, -35.4846, 121.329, -156.096, 120.392, 84.1371, 11.5531, 114.313, 18.8719, 31.427, 23.3158, -119.121
16, 2400.00000, 121.409, -35.474, 121.397, -156.079, 120.463, 84.1415, 11.8208, 114.314, 18.7771, 31.4283, 23.3943, -118.479
16, 3000.00000, 121.66, -35.3983, 121.719, -155.995, 120.773, 84.1937, 12.6515, 114.359, 18.7242, 31.4592, 23.8583, -116.791
17, 0.00000, 121.833, -35.337, 121.992, -155.909, 121.044, 84.2288, 13.4858, 114.383, 18.2569, 31.4866, 24.0016, -114.626
17, 600.00000, 121.883, -35.3304, 122.056, -155.887, 121.143, 84.241, 13.6711, 114.384, 17.8511, 31.4961, 23.7905, -113.738
17, 1200.00000, 121.206, -35.4987, 121.46, -156.038, 120.546, 84.0493, 14.2934, 114.186, 17.4345, 31.3777, 23.8884, -112.207
17, 1800.00000, 122.196, -35.1986, 122.542, -155.704, 121.65, 84.3344, 15.0452, 114.453, 16.7281, 31.5786, 23.8459, -109.661
17, 2400.00000, 121.894, -35.2736, 122.291, -155.768, 121.407, 84.2455, 15.6461, 114.355, 16.5172, 31.5224, 24.1268, -108.43
17, 3000.00000, 122.733, -34.8576, 122.849, -155.246, 122.325, 84.8324, 16.795, 114.832, 16.4793, 32.0556, 24.9648, -106.077
18, 0.00000, 122.836, -33.8993, 123.33, -154.4, 122.422, 85.5818, 18.1501, 115.67, 17.0342, 33.6524, 26.5604, -103.759
18, 600.00000, 123.422, -32.5802, 123.975, -153.075, 123.069, 86.8817, 19.2214, 116.959, 17.1202, 34.9, 27.4498, -101.19
18, 1200.00000, 123.492, -32.1707, 124.066, -152.658, 123.169, 87.2878, 19.4617, 117.36, 16.9603, 35.3115, 27.5269, -100.245
18, 1800.00000, 123.367, -32.2493, 123.967, -152.731, 123.075, 87.2024, 19.7706, 117.269, 16.8291, 35.2473, 27.685, -99.7438
18, 2400.00000, 123.695, -32.1758, 124.273, -152.659, 123.385, 87.2842, 19.5264, 117.353, 16.8583, 35.2971, 27.504, -100.024
18, 3000.00000, 123.891, -32.1499, 124.457, -152.631, 123.574, 87.3166, 19.341, 117.386, 16.7975, 35.3153, 27.3106, -100.144
19, 0.00000, 123.652, -32.264, 124.24, -152.737, 123.367, 87.199, 19.4914, 117.263, 16.5603, 35.2351, 27.2706, -99.7061
19, 600.00000, 123.716, -32.2762, 124.306, -152.735, 123.456, 87.1951, 19.2878, 117.254, 16.1318, 35.2542, 26.8116, -99.3166
19, 1200.00000, 123.938, -32.2166, 124.523, -152.664, 123.693, 87.2645, 19.0377, 117.321, 15.7955, 35.3269, 26.3761, -99.0509
19, 1800.00000, 124.041, -32.1968, 124.603, -152.629, 123.803, 87.3035, 18.3877, 117.357, 15.2503, 35.3945, 25.4773, -98.992
19, 2400.00000, 124.151, -32.161, 124.711, -152.57, 123.95, 87.3551, 17.9423, 117.402, 14.5307, 35.4921, 24.6262, -98.3433
19, 3000.00000, 124.135, -32.1648, 124.685, -152.57, 123.933, 87.3583, 17.6752, 117.405, 14.3625, 35.5092, 24.2955, -98.416
20, 0.00000, 124.02, -32.1902, 124.573, -152.589, 123.83, 87.3356, 17.5751, 117.38, 14.1569, 35.5139, 24.0771, -98.216
20, 600.00000, 124.159, -32.153, 124.712, -152.547, 123.978, 87.3762, 17.5167, 117.419, 14.0146, 35.5549, 23.9317, -98.0114
20, 1200.00000, 124.049, -32.1796, 124.612, -152.565, 123.889, 87.3509, 17.4918, 117.39, 13.772, 35.5609, 23.7509, -97.6371
20, 1800.00000, 124.117, -32.1613, 124.646, -152.573, 123.885, 87.3656, 17.4494, 117.417, 14.513, 35.5042, 24.2149, -98.9805
20, 2400.00000, 124.014, -32.1872, 124.544, -152.598, 123.784, 87.3393, 17.4423, 117.39, 14.4839, 35.4886, 24.1908, -98.963
20, 3000.00000, 124.008, -32.1837, 124.536, -152.59, 123.785, 87.3468, 17.3102, 117.397, 14.3263, 35.5097, 23.9767, -98.869
21, 0.00000, 124.015, -32.1852, 124.139, -152.481, 123.793, 87.5639, 17.1365, 117.507, 14.1089, 35.7653, 23.7103, -98.5711
21, 600.00000, 123.996, -32.1994, 124.094, -152.492, 123.757, 87.5622, 16.6223, 117.507, 13.922, 35.779, 23.167, -98.9831
21, 1200.00000, 123.806, -32.0417, 124.289, -152.432, 123.57, 87.5171, 16.1838, 117.568, 13.6603, 35.7509, 22.6153, -99.1499
21, 1800.00000, 123.758, -32.0839, 124.227, -152.467, 123.521, 87.485, 15.8055, 117.536, 13.3975, 35.7457, 22.1311, -99.2743
21, 2400.00000, 123.649, -32.1657, 124.077, -152.544, 123.386, 87.4223, 15.0137, 117.477, 13.1187, 35.7156, 21.3064, -100.067
21, 3000.00000, 123.695, -32.166, 124.106, -152.545, 123.417, 87.4282, 14.7597, 117.485, 13.1007, 35.718, 21.0916, -100.447
22, 0.00000, 123.607, -32.2023, 124.005, -152.584, 123.314, 87.3957, 14.5595, 117.455, 13.1193, 35.6902, 20.9479, -100.848
22, 600.00000, 123.87, -32.1265, 124.256, -152.507, 123.569, 87.4775, 14.3766, 117.537, 13.0794, 35.7522, 20.7724, -101.012
22, 1200.00000, 123.817, -32.1343, 124.2, -152.515, 123.513, 87.4706, 14.3245, 117.531, 13.0714, 35.7504, 20.7266, -101.091
22, 1800.00000, 123.664, -32.1799, 124.036, -152.564, 123.345, 87.427, 14.1707, 117.49, 13.1299, 35.7136, 20.6502, -101.507
22, 2400.00000, 123.923, -32.1053, 124.281, -152.491, 123.591, 87.5066, 14.0088, 117.571, 13.1528, 35.7677, 20.5372, -101.767
22, 3000.00000, 123.883, -32.1067, 124.243, -152.492, 123.552, 87.5044, 14.0316, 117.569, 13.1521, 35.7691, 20.555, -101.726
23, 0.00000, 123.891, -32.0776, 124.259, -152.453, 123.582, 87.5367, 13.9725, 117.598, 12.8799, 35.8279, 20.3137, -101.27
23, 600.00000, 123.954, -32.0444, 124.301, -152.427, 123.616, 87.5737, 13.7569, 117.639, 13.0494, 35.8411, 20.2672, -101.95
23, 1200.00000, 122.748, -32.3497, 123.086, -152.74, 122.387, 87.2656, 13.5034, 117.338, 13.1287, 35.6301, 20.1455, -102.819
23, 1800.00000, 122.904, -32.5112, 123.221, -152.686, 122.93, 87.2224, 13.1521, 117.188, 12.9183, 35.6745, 19.7486, -103.126
23, 2400.00000, 123.231, -32.4221, 123.505, -152.823, 122.801, 87.2127, 12.6875, 117.295, 13.296, 35.5151, 19.6468, -104.757
23, 3000.00000, 123.401, -32.3812, 123.642, -152.775, 122.953, 87.2712, 12.0217, 117.355, 13.0112, 35.5843, 18.9363, -105.49
24, 0.00000, 123.22, -32.4303, 123.448, -152.818, 122.772, 87.2311, 11.6512, 117.315, 12.7566, 35.5841, 18.4724, -105.794
