hour, t(sec), V1, VAngle1, V2, VAngle2, V3, VAngle3, I1, IAngle1, I2, IAngle2, I3, IAngle3
0, 600.00000, 7939.4, -1.65216, 7934.88, -121.631, 7931.33, 118.325, 34.3627, 155.512, 34.459, 35.6379, 34.4765, -84.5635
0, 1200.00000, 7862.94, -1.95832, 7858.41, -121.937, 7854.87, 118.019, 40.3798, 155.41, 40.4762, 35.5188, 40.4947, -84.6539
0, 1800.00000, 7888.1, -1.85752, 7883.46, -121.836, 7879.86, 118.12, 38.4024, 155.445, 38.5046, 35.5596, 38.5203, -84.6293
0, 2400.00000, 7883.5, -1.87599, 7878.86, -121.854, 7875.24, 118.101, 38.771, 155.438, 38.872, 35.5524, 38.8889, -84.6338
0, 3000.00000, 7896.08, -1.82553, 7891.44, -121.804, 7887.83, 118.152, 37.7753, 155.455, 37.8776, 35.5722, 37.8933, -84.62
1, 0.00000, 7878.93, -1.89413, 7874.35, -121.873, 7870.79, 118.083, 39.1232, 155.432, 39.2218, 35.5441, 39.2392, -84.6367
1, 600.00000, 7888.01, -1.85736, 7883.51, -121.836, 7880.01, 118.12, 38.4037, 155.443, 38.4983, 35.5562, 38.517, -84.6222
1, 1200.00000, 7892.6, -1.8388, 7888.15, -121.818, 7884.69, 118.139, 38.0323, 155.45, 38.1261, 35.5622, 38.1441, -84.6161
1, 1800.00000, 7906.33, -1.78351, 7901.97, -121.763, 7898.57, 118.195, 36.9363, 155.468, 37.0284, 35.5811, 37.0457, -84.5987
1, 2400.00000, 7885.76, -1.8656, 7881.49, -121.845, 7878.17, 118.113, 38.5473, 155.44, 38.6351, 35.5471, 38.6539, -84.6192
1, 3000.00000, 7906.28, -1.78306, 7902.1, -121.763, 7898.83, 118.196, 36.9239, 155.466, 37.0082, 35.5765, 37.0277, -84.5914
2, 0.00000, 7880.04, -1.88828, 7875.85, -121.868, 7872.59, 118.09, 38.9894, 155.432, 39.0737, 35.5363, 39.0934, -84.6231
2, 600.00000, 7915.49, -1.74638, 7911.27, -121.727, 7908, 118.232, 36.1926, 155.48, 36.2805, 35.5916, 36.2976, -84.5841
2, 1200.00000, 7894.94, -1.82854, 7890.74, -121.809, 7887.48, 118.15, 37.8086, 155.453, 37.8958, 35.5593, 37.9133, -84.6081
2, 1800.00000, 7916.63, -1.74176, 7912.43, -121.722, 7909.17, 118.237, 36.1001, 155.482, 36.1877, 35.5929, 36.2047, -84.5826
2, 2400.00000, 7885.83, -1.86521, 7881.59, -121.845, 7878.32, 118.114, 38.5271, 155.441, 38.6161, 35.5462, 38.6331, -84.6207
2, 3000.00000, 7902.94, -1.79665, 7898.7, -121.777, 7895.41, 118.182, 37.1825, 155.464, 37.2715, 35.5728, 37.2885, -84.6001
3, 0.00000, 7898.38, -1.81487, 7894.14, -121.795, 7890.85, 118.164, 37.54, 155.457, 37.6292, 35.5654, 37.6461, -84.6061
3, 600.00000, 7910.93, -1.76475, 7906.69, -121.745, 7903.4, 118.214, 36.5527, 155.475, 36.6423, 35.586, 36.6588, -84.5905
3, 1200.00000, 7890.48, -1.84709, 7886.1, -121.827, 7882.72, 118.131, 38.1685, 155.449, 38.2651, 35.5569, 38.2792, -84.6223
3, 1800.00000, 7905.46, -1.78764, 7900.93, -121.767, 7897.46, 118.19, 36.988, 155.472, 37.0945, 35.5839, 37.104, -84.6144
3, 2400.00000, 7895.3, -1.82875, 7890.65, -121.807, 7887.13, 118.149, 37.7874, 155.46, 37.9009, 35.5707, 37.9073, -84.6329
3, 3000.00000, 7907.9, -1.77893, 7903.08, -121.757, 7899.43, 118.199, 36.8113, 155.48, 36.9346, 35.5942, 36.937, -84.6287
4, 0.00000, 7882.89, -1.8799, 7877.87, -121.857, 7874.09, 118.097, 38.7919, 155.448, 38.9253, 35.5598, 38.9245, -84.6661
4, 600.00000, 7909.23, -1.77506, 7904.01, -121.751, 7900.09, 118.201, 36.7308, 155.486, 36.875, 35.6061, 36.8698, -84.6479
4, 1200.00000, 7888.7, -1.85771, 7883.36, -121.834, 7879.36, 118.118, 38.3597, 155.459, 38.5096, 35.5758, 38.5028, -84.6757
4, 1800.00000, 7903.62, -1.79893, 7898, -121.774, 7893.8, 118.176, 37.2088, 155.482, 37.3728, 35.606, 37.361, -84.6737
4, 2400.00000, 7892.2, -1.84475, 7886.55, -121.819, 7882.32, 118.13, 38.1133, 155.465, 38.2781, 35.5877, 38.2665, -84.6869
4, 3000.00000, 7888.75, -1.85865, 7883.09, -121.833, 7878.85, 118.116, 38.389, 155.461, 38.5537, 35.583, 38.5426, -84.6899
5, 0.00000, 7892.16, -1.84517, 7886.45, -121.819, 7882.17, 118.13, 38.1276, 155.466, 38.2939, 35.59, 38.2826, -84.6873
5, 600.00000, 7893.33, -1.84069, 7887.56, -121.815, 7883.24, 118.134, 38.0403, 155.468, 38.2089, 35.593, 38.1969, -84.6883
5, 1200.00000, 7902.41, -1.8044, 7896.63, -121.778, 7892.27, 118.17, 37.3335, 155.48, 37.5021, 35.6088, 37.4907, -84.6784
5, 1800.00000, 7887.6, -1.86391, 7881.77, -121.838, 7877.39, 118.11, 38.5036, 155.46, 38.6736, 35.5852, 38.662, -84.6956
5, 2400.00000, 7854.5, -1.99701, 7848.71, -121.971, 7844.36, 117.977, 41.1094, 155.414, 41.2767, 35.5318, 41.2666, -84.7281
5, 3000.00000, 7870.53, -2.12702, 7864.86, -122.101, 7860.64, 117.848, 43.6447, 155.244, 43.8051, 35.3511, 43.7959, -84.8842
6, 0.00000, 7967.19, -1.74028, 7961.5, -121.715, 7957.24, 118.235, 36.0662, 155.361, 36.2362, 35.495, 36.2244, -84.8046
6, 600.00000, 7906.23, -1.98311, 7900.55, -121.958, 7896.36, 117.992, 40.8308, 155.282, 40.9997, 35.3919, 40.9835, -84.8674
6, 1200.00000, 7849.14, -2.60032, 7843.37, -122.575, 7839.21, 117.374, 52.7383, 154.833, 52.9058, 34.9167, 52.8894, -85.2824
6, 1800.00000, 7952.17, -1.99367, 7946.38, -121.968, 7942.15, 117.982, 41.0447, 155.155, 41.2178, 35.2622, 41.1979, -84.9995
6, 2400.00000, 7830.32, -3.06058, 7824.35, -123.034, 7820.01, 116.914, 61.4186, 154.441, 61.5915, 34.5102, 61.5695, -85.6637
6, 3000.00000, 7820.49, -3.8541, 7814.22, -123.825, 7809.68, 116.12, 75.9796, 153.707, 76.1599, 33.7595, 76.1297, -86.3841
7, 0.00000, 7786.86, -3.99294, 7780.54, -123.964, 7775.99, 115.981, 78.4741, 153.663, 78.6568, 33.7117, 78.6231, -86.4278
7, 600.00000, 7773.91, -4.03563, 7807.83, -124.029, 7806.29, 115.903, 79.505, 153.588, 79.8471, 33.6536, 79.7555, -86.5919
7, 1200.00000, 7800.32, -3.92712, 7834.44, -123.919, 7832.8, 116.012, 77.5548, 153.625, 77.8983, 33.6883, 77.8008, -86.5622
7, 1800.00000, 7772.75, -4.0411, 7806.47, -124.033, 7804.88, 115.897, 79.6062, 153.589, 79.9571, 33.6482, 79.8533, -86.5993
7, 2400.00000, 7812.47, -3.87874, 7846.32, -123.869, 7844.42, 116.061, 76.6824, 153.645, 77.043, 33.7041, 76.9317, -86.5578
7, 3000.00000, 7797.8, -4.13901, 7790.17, -124.103, 7784.78, 115.834, 81.0606, 153.514, 81.3062, 33.5455, 81.2229, -86.6205
8, 0.00000, 7800.27, -4.12968, 7792.44, -124.092, 7786.93, 115.843, 80.8958, 153.519, 81.151, 33.5476, 81.0584, -86.6228
8, 600.00000, 7802.74, -4.11989, 7794.82, -124.082, 7789.43, 115.854, 80.7125, 153.528, 80.9744, 33.5425, 80.8613, -86.6254
8, 1200.00000, 7782.26, -4.20522, 7774.22, -124.166, 7769.11, 115.77, 82.2115, 153.511, 82.4838, 33.4987, 82.3333, -86.6595
8, 1800.00000, 7787.21, -4.18573, 7778.94, -124.146, 7773.7, 115.789, 81.8595, 153.52, 82.1441, 33.5045, 81.9828, -86.66
8, 2400.00000, 7818.82, -4.0562, 7810.33, -124.015, 7805.28, 115.921, 79.53, 153.574, 79.8305, 33.532, 79.6297, -86.6341
8, 3000.00000, 7768.31, -4.25259, 7799.69, -124.236, 7798.1, 115.688, 83.2944, 153.448, 83.7513, 33.4173, 83.4848, -86.8389
9, 0.00000, 7785.4, -4.18299, 7816.72, -124.164, 7815.34, 115.76, 82.0291, 153.484, 82.5026, 33.4219, 82.189, -86.8328
9, 600.00000, 7783.02, -4.19303, 7814.26, -124.174, 7812.95, 115.751, 82.2041, 153.484, 82.6818, 33.4137, 82.3566, -86.8391
9, 1200.00000, 7785.32, -4.38057, 7776.44, -124.336, 7771.98, 115.6, 85.2333, 153.372, 85.5633, 33.2746, 85.2727, -86.8687
9, 1800.00000, 7768.89, -4.63238, 7759.95, -124.588, 7755.6, 115.349, 89.6298, 153.175, 89.9634, 33.0732, 89.6594, -87.0609
9, 2400.00000, 7779.9, -4.5866, 7770.93, -124.542, 7766.62, 115.395, 88.8345, 153.191, 89.1692, 33.0846, 88.8591, -87.0492
9, 3000.00000, 7875.44, -4.19251, 7866.5, -124.148, 7862.31, 115.79, 81.9092, 153.326, 82.2428, 33.2021, 81.9233, -86.9384
10, 0.00000, 7801.91, -4.49452, 7793.06, -124.45, 7789.01, 115.489, 87.2291, 153.223, 87.559, 33.1024, 87.2347, -87.0249
10, 600.00000, 7814.12, -4.44454, 7805.2, -124.4, 7801.26, 115.539, 86.3469, 153.246, 86.6818, 33.1129, 86.3408, -87.0132
10, 1200.00000, 7888.9, -4.1381, 7879.88, -124.093, 7875.96, 115.846, 80.9322, 153.354, 81.2731, 33.2059, 80.9213, -86.9292
10, 1800.00000, 7905.85, -3.88563, 7896.83, -123.841, 7893.05, 116.098, 76.4348, 153.556, 76.7757, 33.395, 76.4199, -86.7463
10, 2400.00000, 7778.52, -4.59224, 7769.59, -124.547, 7765.83, 115.393, 88.931, 153.201, 89.2667, 33.0591, 88.9086, -87.0575
10, 3000.00000, 7796.87, -4.51582, 7787.99, -124.471, 7784.26, 115.469, 87.597, 153.226, 87.9305, 33.0827, 87.5739, -87.0347
11, 0.00000, 7787.13, -4.55593, 7778.31, -124.511, 7774.64, 115.429, 88.2915, 153.212, 88.6238, 33.0685, 88.2659, -87.0466
11, 600.00000, 7864.31, -4.23692, 7855.65, -124.193, 7852.11, 115.749, 82.6799, 153.319, 83.0065, 33.1653, 82.6507, -86.9539
11, 1200.00000, 7788.32, -4.73139, 7779.9, -124.689, 7776.6, 115.255, 91.3299, 153.036, 91.6446, 32.8944, 91.2924, -87.2063
11, 1800.00000, 7808.05, -4.64889, 7799.78, -124.607, 7796.59, 115.338, 89.8917, 153.062, 90.2007, 32.9198, 89.853, -87.1798
11, 2400.00000, 7804.32, -4.66269, 7796.41, -124.623, 7793.49, 115.325, 90.1274, 153.054, 90.421, 32.9116, 90.0802, -87.1791
11, 3000.00000, 7843.76, -4.49976, 7835.92, -124.461, 7833.06, 115.488, 87.2785, 153.11, 87.5707, 32.9629, 87.2304, -87.1298
12, 0.00000, 7904.52, -3.51721, 7896.86, -123.479, 7894.06, 116.47, 69.7156, 153.911, 70.0064, 33.7294, 69.6701, -86.3874
12, 600.00000, 7815.3, -3.88, 7808.05, -123.844, 7805.6, 116.108, 76.2939, 153.784, 76.5641, 33.6139, 76.2323, -86.4768
12, 1200.00000, 7799.1, -4.13101, 7792.14, -124.096, 7789.9, 115.858, 80.79, 153.579, 81.0437, 33.4197, 80.7226, -86.6569
12, 1800.00000, 7819.52, -4.0456, 7812.86, -124.012, 7810.81, 115.944, 79.271, 153.605, 79.5113, 33.4422, 79.1954, -86.6268
12, 2400.00000, 7879.95, -3.79778, 7873.38, -123.765, 7871.36, 116.192, 74.8301, 153.688, 75.0656, 33.517, 74.7539, -86.5538
12, 3000.00000, 7894.48, -3.55472, 7887.54, -123.521, 7885.31, 116.434, 70.4209, 153.891, 70.6748, 33.7113, 70.357, -86.3783
13, 0.00000, 7912.45, -3.48126, 7905.68, -123.448, 7903.59, 116.508, 69.0807, 153.915, 69.3271, 33.7306, 69.0111, -86.3544
13, 600.00000, 7844.09, -3.76183, 7836.84, -123.726, 7834.31, 116.226, 74.1708, 153.823, 74.439, 33.6542, 74.1159, -86.4412
13, 1200.00000, 7900.46, -3.53107, 7893.36, -123.496, 7891.03, 116.457, 70.0012, 153.9, 70.2599, 33.719, 69.9388, -86.3742
13, 1800.00000, 7837.7, -3.78646, 7830.82, -123.751, 7828.52, 116.202, 74.6478, 153.811, 74.8932, 33.6403, 74.5781, -86.438
13, 2400.00000, 7840.9, -3.78116, 7832.1, -123.738, 7828.33, 116.202, 74.5413, 153.825, 74.8754, 33.6675, 74.531, -86.4764
13, 3000.00000, 7813.21, -3.89593, 7804.18, -123.851, 7800.18, 116.087, 76.6251, 153.786, 76.9663, 33.636, 76.6218, -86.51
14, 0.00000, 7797.63, -3.96215, 7788.14, -123.915, 7783.74, 116.019, 77.8296, 153.766, 78.1886, 33.6209, 77.8388, -86.5357
14, 600.00000, 7806.72, -4.11051, 7797.22, -124.062, 7792.52, 115.871, 80.5023, 153.593, 80.8551, 33.4631, 80.5212, -86.6897
14, 1200.00000, 7787.3, -4.19101, 7777.74, -124.142, 7772.93, 115.79, 81.9485, 153.564, 82.3012, 33.4401, 81.972, -86.7117
14, 1800.00000, 7805.33, -4.30015, 7795.87, -124.251, 7791.1, 115.68, 83.9144, 153.407, 84.2539, 33.2878, 83.9336, -86.8536
14, 2400.00000, 7907.95, -3.69493, 7898.55, -123.648, 7893.78, 116.284, 73.111, 153.723, 73.445, 33.5993, 73.1411, -86.5654
14, 3000.00000, 7791.79, -4.3556, 7782.46, -124.308, 7777.59, 115.624, 84.9115, 153.382, 85.2401, 33.2777, 84.9422, -86.8622
15, 0.00000, 7824.43, -4.21964, 7815.33, -124.173, 7810.29, 115.758, 82.5381, 153.417, 82.8488, 33.3338, 82.5897, -86.8113
15, 600.00000, 7877.01, -3.82493, 7865.04, -123.769, 7904.03, 116.13, 75.5121, 153.58, 75.8631, 33.601, 75.7122, -86.6395
15, 1200.00000, 7912.24, -3.67453, 7903.53, -123.631, 7898.74, 116.303, 72.7988, 153.709, 73.0867, 33.6253, 72.8513, -86.5292
15, 1800.00000, 7905.99, -3.69873, 7897.55, -123.657, 7892.83, 116.278, 73.2528, 153.695, 73.5249, 33.621, 73.3075, -86.5264
15, 2400.00000, 7902, -3.52911, 7893.81, -123.488, 7889.05, 116.447, 70.1724, 153.862, 70.432, 33.8018, 70.2384, -86.3515
15, 3000.00000, 7902.17, -3.34082, 7894.38, -123.303, 7889.21, 116.633, 66.7396, 154.02, 66.9747, 34.0181, 66.856, -86.1556
16, 0.00000, 7796.88, -3.77034, 7789.25, -123.733, 7784.04, 116.202, 74.5856, 153.871, 74.8093, 33.8862, 74.7147, -86.2699
16, 600.00000, 7803.82, -4.11325, 7796.33, -124.076, 7790.81, 115.858, 80.7533, 153.513, 80.9641, 33.5503, 80.9043, -86.5975
16, 1200.00000, 7784.45, -4.19305, 7777.03, -124.156, 7771.49, 115.778, 82.1755, 153.485, 82.3826, 33.5261, 82.3306, -86.6193
16, 1800.00000, 7792.74, -4.1582, 7785.44, -124.122, 7779.76, 115.812, 81.5781, 153.489, 81.7753, 33.5466, 81.7475, -86.6016
16, 2400.00000, 7797.49, -4.13821, 7790.26, -124.102, 7784.62, 115.832, 81.2315, 153.494, 81.4231, 33.553, 81.3994, -86.593
16, 3000.00000, 7819.1, -4.04813, 7811.96, -124.013, 7806.43, 115.921, 79.6497, 153.52, 79.8307, 33.5847, 79.8182, -86.5601
17, 0.00000, 7834.65, -3.98297, 7827.79, -123.95, 7822.37, 115.986, 78.4989, 153.536, 78.6636, 33.6078, 78.6667, -86.532
17, 600.00000, 7838.11, -3.9678, 7831.48, -123.935, 7826.24, 116.002, 78.2395, 153.539, 78.3888, 33.6083, 78.3963, -86.5208
17, 1200.00000, 7798.09, -4.13156, 7791.71, -124.1, 7786.57, 115.838, 81.1687, 153.483, 81.3047, 33.554, 81.3244, -86.5646
17, 1800.00000, 7862.1, -3.86709, 7856.11, -123.837, 7851.15, 116.103, 76.4379, 153.563, 76.5512, 33.6429, 76.5874, -86.4706
17, 2400.00000, 7846.23, -3.93137, 7840.41, -123.902, 7835.53, 116.039, 77.6029, 153.54, 77.7023, 33.6203, 77.7473, -86.4835
17, 3000.00000, 7885.78, -3.40321, 7877.51, -123.365, 7917.58, 116.547, 68.0441, 153.856, 68.1654, 34.0565, 68.3111, -86.1317
18, 0.00000, 7919.71, -2.50572, 7914.37, -122.478, 7909.77, 117.464, 51.2328, 154.71, 51.2913, 34.8341, 51.3579, -85.2842
18, 600.00000, 7964.3, -1.16236, 7959.33, -121.136, 7954.72, 118.809, 24.812, 155.879, 24.8526, 36.1519, 24.9348, -84.0653
18, 1200.00000, 7970.5, -0.739997, 7965.71, -120.714, 7961.16, 119.232, 16.1978, 156.272, 16.2307, 36.6961, 16.3182, -83.6159
18, 1800.00000, 7969.02, -0.745292, 7964.31, -120.719, 7959.8, 119.227, 16.3526, 156.255, 16.3777, 36.679, 16.4699, -83.6083
18, 2400.00000, 7989.16, -0.666328, 7984.43, -120.64, 7979.9, 119.306, 14.7297, 156.286, 14.7586, 36.7499, 14.8475, -83.5784
18, 3000.00000, 8002.48, -0.614059, 7997.76, -120.588, 7993.26, 119.358, 13.6664, 156.303, 13.6966, 36.7969, 13.7835, -83.5582
19, 0.00000, 7993.11, -0.650018, 7988.5, -120.624, 7984.07, 119.322, 14.4574, 156.273, 14.4803, 36.7407, 14.5709, -83.5709
19, 600.00000, 7997.37, -0.632635, 7992.92, -120.608, 7988.61, 119.34, 14.1191, 156.271, 14.1358, 36.7402, 14.2274, -83.5525
19, 1200.00000, 8008.57, -0.588431, 8004.24, -120.564, 8000.04, 119.385, 13.1991, 156.286, 13.2121, 36.7766, 13.3034, -83.5168
19, 1800.00000, 8009.66, -0.583558, 8005.48, -120.56, 8001.45, 119.391, 13.0906, 156.291, 13.1023, 36.7657, 13.1903, -83.5153
19, 2400.00000, 8010.77, -0.57835, 8006.84, -120.556, 8003.02, 119.397, 12.9692, 156.292, 12.9723, 36.7521, 13.0608, -83.4896
19, 3000.00000, 8007.42, -0.591261, 8003.52, -120.569, 7999.76, 119.384, 13.2306, 156.29, 13.2346, 36.7342, 13.3213, -83.5023
20, 0.00000, 7998.45, -0.626053, 7994.63, -120.605, 7990.92, 119.35, 13.9449, 156.278, 13.9463, 36.6962, 14.0336, -83.5177
20, 600.00000, 8006.29, -0.595228, 8002.52, -120.574, 7998.86, 119.381, 13.3056, 156.288, 13.3046, 36.7219, 13.3923, -83.4911
20, 1200.00000, 7998.41, -0.625686, 7994.74, -120.605, 7991.14, 119.351, 13.9345, 156.275, 13.9289, 36.6864, 14.0183, -83.4994
20, 1800.00000, 8004.18, -0.604284, 8000.19, -120.582, 7996.38, 119.371, 13.487, 156.295, 13.4981, 36.7284, 13.5809, -83.5289
20, 2400.00000, 7997.45, -0.63053, 7993.47, -120.608, 7989.67, 119.345, 14.0289, 156.285, 14.0397, 36.702, 14.1227, -83.5444
20, 3000.00000, 7995.23, -0.639053, 7991.3, -120.617, 7987.55, 119.337, 14.1983, 156.283, 14.2079, 36.6915, 14.2906, -83.5459
21, 0.00000, 7967.99, -0.545888, 7963.72, -120.523, 8011.05, 119.427, 12.2605, 156.353, 12.2766, 36.9413, 12.3775, -83.417
21, 600.00000, 7963.54, -0.563228, 7959.28, -120.541, 8006.64, 119.41, 12.616, 156.352, 12.6369, 36.9152, 12.7337, -83.4473
21, 1200.00000, 7973.25, -0.524116, 7969.5, -120.503, 7965.95, 119.453, 11.7939, 156.463, 11.8083, 36.9258, 11.8836, -83.366
21, 1800.00000, 7969.75, -0.537471, 7966.06, -120.517, 7962.59, 119.44, 12.0872, 156.455, 12.1024, 36.8953, 12.1752, -83.3865
21, 2400.00000, 7961.72, -0.568633, 7958.05, -120.549, 7954.67, 119.409, 12.7586, 156.445, 12.7812, 36.8433, 12.8467, -83.443
21, 3000.00000, 7963.92, -0.56002, 7960.22, -120.54, 7956.85, 119.418, 12.584, 156.451, 12.6105, 36.8491, 12.673, -83.4532
22, 0.00000, 7958.31, -0.582098, 7954.58, -120.562, 7951.2, 119.396, 13.0472, 156.445, 13.0776, 36.8256, 13.1376, -83.4795
22, 600.00000, 7972.85, -0.525035, 7969.13, -120.505, 7965.76, 119.453, 11.8547, 156.471, 11.8868, 36.8846, 11.9449, -83.4552
22, 1200.00000, 7968.44, -0.542366, 7964.71, -120.523, 7961.35, 119.436, 12.2078, 156.467, 12.2408, 36.8674, 12.2983, -83.4655
22, 1800.00000, 7958.43, -0.581833, 7954.65, -120.562, 7951.27, 119.397, 13.0261, 156.455, 13.0632, 36.8291, 13.1185, -83.4984
22, 2400.00000, 7972.98, -0.524822, 7969.18, -120.505, 7965.79, 119.454, 11.8348, 156.483, 11.8747, 36.8906, 11.9278, -83.479
22, 3000.00000, 7969.69, -0.537759, 7965.89, -120.518, 7962.51, 119.441, 12.0963, 156.479, 12.1359, 36.8786, 12.1892, -83.4822
23, 0.00000, 7966.47, -0.550141, 7962.78, -120.531, 7959.47, 119.429, 12.3308, 156.476, 12.3654, 36.8634, 12.4204, -83.4683
23, 600.00000, 7967.76, -0.545503, 7963.97, -120.526, 7960.61, 119.433, 12.2152, 156.489, 12.2571, 36.8785, 12.3082, -83.485
23, 1200.00000, 7888.99, -0.857224, 7885.1, -120.837, 7881.72, 119.121, 18.6194, 156.376, 18.6697, 36.6346, 18.7176, -83.6281
23, 1800.00000, 7870.51, -0.927927, 7916.15, -120.914, 7913.55, 119.043, 20.1262, 156.288, 20.2206, 36.5457, 20.252, -83.8141
23, 2400.00000, 7914, -0.959364, 7909.91, -120.939, 7906.48, 119.019, 20.6902, 156.223, 20.7573, 36.4461, 20.7936, -83.8252
23, 3000.00000, 7919.62, -0.936859, 7915.58, -120.917, 7912.23, 119.042, 20.2196, 156.237, 20.2915, 36.4545, 20.3222, -83.8297
24, 0.00000, 7905.12, -0.994174, 7901.13, -120.975, 7897.86, 118.985, 21.3809, 156.217, 21.4538, 36.4171, 21.4822, -83.8512
