hour, t(sec), V1, VAngle1, V2, VAngle2, V3, VAngle3, I1, IAngle1, I2, IAngle2, I3, IAngle3
0, 600.00000, 7884.88, -1.70557, 7880.35, -121.684, 7876.81, 118.272, 33.4172, 155.451, 33.4167, 35.4423, 33.4128, -84.5528
0, 1200.00000, 7798.62, -2.02382, 7794.08, -122.002, 7790.56, 117.953, 39.4422, 155.361, 39.4416, 35.3523, 39.4369, -84.6428
0, 1800.00000, 7826.99, -1.91897, 7822.35, -121.897, 7818.76, 118.058, 37.4657, 155.39, 37.4651, 35.3821, 37.4606, -84.6129
0, 2400.00000, 7821.8, -1.93816, 7817.16, -121.916, 7813.56, 118.039, 37.8245, 155.385, 37.8239, 35.3763, 37.8194, -84.6186
0, 3000.00000, 7835.99, -1.8857, 7831.35, -121.864, 7827.76, 118.091, 36.8363, 155.4, 36.8357, 35.3914, 36.8313, -84.6035
1, 0.00000, 7816.65, -1.95704, 7812.07, -121.935, 7808.52, 118.02, 38.1845, 155.38, 38.1839, 35.3713, 38.1794, -84.6238
1, 600.00000, 7826.9, -1.9188, 7822.4, -121.897, 7818.91, 118.058, 37.4656, 155.39, 37.465, 35.3822, 37.4607, -84.613
1, 1200.00000, 7832.07, -1.89952, 7827.62, -121.878, 7824.17, 118.078, 37.1066, 155.396, 37.106, 35.388, 37.1018, -84.6072
1, 1800.00000, 7847.56, -1.84205, 7843.19, -121.821, 7839.81, 118.136, 36.027, 155.412, 36.0265, 35.404, 36.0224, -84.5913
1, 2400.00000, 7824.35, -1.9274, 7820.08, -121.907, 7816.78, 118.051, 37.6453, 155.388, 37.6448, 35.3799, 37.6406, -84.6155
1, 3000.00000, 7847.51, -1.8416, 7843.32, -121.822, 7840.07, 118.137, 36.027, 155.412, 36.0265, 35.4043, 36.0226, -84.5913
2, 0.00000, 7817.9, -1.95099, 7813.71, -121.931, 7810.47, 118.028, 38.0946, 155.381, 38.0942, 35.3733, 38.09, -84.6223
2, 600.00000, 7857.89, -1.80349, 7853.67, -121.783, 7850.41, 118.175, 35.3075, 155.423, 35.307, 35.4151, 35.3031, -84.5804
2, 1200.00000, 7834.7, -1.88888, 7830.5, -121.869, 7827.26, 118.09, 36.9261, 155.398, 36.9256, 35.3909, 36.9216, -84.6047
2, 1800.00000, 7859.18, -1.79868, 7854.98, -121.779, 7851.73, 118.18, 35.2174, 155.424, 35.217, 35.4164, 35.2131, -84.5791
2, 2400.00000, 7824.43, -1.927, 7820.19, -121.907, 7816.92, 118.052, 37.6453, 155.388, 37.6448, 35.38, 37.6406, -84.6154
2, 3000.00000, 7843.73, -1.85573, 7839.48, -121.836, 7836.21, 118.123, 36.2968, 155.408, 36.2963, 35.4003, 36.2924, -84.5952
3, 0.00000, 7838.59, -1.87467, 7834.34, -121.855, 7831.07, 118.104, 36.6559, 155.402, 36.6554, 35.3946, 36.6513, -84.6009
3, 600.00000, 7852.74, -1.82258, 7848.49, -121.802, 7845.22, 118.156, 35.6689, 155.418, 35.6684, 35.4105, 35.6645, -84.5849
3, 1200.00000, 7829.66, -1.90816, 7825.27, -121.887, 7821.91, 118.07, 37.2858, 155.393, 37.2852, 35.3853, 37.2811, -84.61
3, 1800.00000, 7846.55, -1.84635, 7842.01, -121.825, 7838.56, 118.132, 36.1171, 155.411, 36.1164, 35.4027, 36.1123, -84.5923
3, 2400.00000, 7835.07, -1.88909, 7830.42, -121.868, 7826.9, 118.089, 36.9264, 155.399, 36.9256, 35.3905, 36.9214, -84.6043
3, 3000.00000, 7849.27, -1.83729, 7844.45, -121.815, 7840.82, 118.14, 35.9374, 155.414, 35.9364, 35.405, 35.9323, -84.5894
4, 0.00000, 7821.05, -1.94225, 7816.02, -121.919, 7812.26, 118.034, 37.9153, 155.384, 37.9142, 35.3751, 37.9097, -84.619
4, 600.00000, 7850.75, -1.83324, 7845.53, -121.809, 7841.62, 118.143, 35.8476, 155.415, 35.8464, 35.4059, 35.8421, -84.5879
4, 1200.00000, 7827.59, -1.91916, 7822.24, -121.895, 7818.26, 118.057, 37.466, 155.391, 37.4647, 35.3814, 37.4601, -84.6122
4, 1800.00000, 7844.41, -1.85802, 7838.79, -121.833, 7834.6, 118.117, 36.2974, 155.408, 36.2959, 35.3985, 36.2913, -84.5946
4, 2400.00000, 7831.53, -1.90564, 7825.88, -121.88, 7821.66, 118.069, 37.1949, 155.394, 37.1934, 35.3843, 37.1886, -84.6087
4, 3000.00000, 7827.64, -1.9201, 7821.98, -121.894, 7817.75, 118.055, 37.4657, 155.391, 37.4642, 35.3807, 37.4593, -84.6123
5, 0.00000, 7831.49, -1.90607, 7825.78, -121.88, 7821.51, 118.068, 37.1969, 155.395, 37.1954, 35.385, 37.1905, -84.6079
5, 600.00000, 7832.8, -1.90142, 7827.03, -121.875, 7822.73, 118.073, 37.1067, 155.396, 37.1051, 35.3862, 37.1003, -84.6067
5, 1200.00000, 7843.05, -1.86368, 7837.26, -121.837, 7832.93, 118.111, 36.3884, 155.407, 36.3868, 35.3973, 36.3821, -84.5955
5, 1800.00000, 7826.34, -1.92555, 7820.51, -121.899, 7816.14, 118.048, 37.556, 155.389, 37.5544, 35.3792, 37.5494, -84.6136
5, 2400.00000, 7789.01, -2.06403, 7783.21, -122.038, 7778.88, 117.91, 40.1615, 155.35, 40.1599, 35.34, 40.1546, -84.6529
5, 3000.00000, 7800.88, -2.19785, 7795.21, -122.172, 7791, 117.776, 42.7087, 155.184, 42.707, 35.1744, 42.7015, -84.8187
6, 0.00000, 7909.81, -1.79584, 7904.12, -121.771, 7899.87, 118.179, 35.1595, 155.299, 35.158, 35.2893, 35.1534, -84.7036
6, 600.00000, 7841.1, -2.04814, 7835.42, -122.023, 7831.25, 117.927, 39.9242, 155.227, 39.9225, 35.2168, 39.9174, -84.7762
6, 1200.00000, 7764.62, -2.68754, 7758.85, -122.662, 7754.71, 117.287, 51.8369, 154.792, 51.8346, 34.7819, 51.8281, -85.211
6, 1800.00000, 7886.68, -2.05769, 7880.89, -122.032, 7876.67, 117.917, 40.1383, 155.097, 40.1364, 35.0875, 40.1314, -84.9054
6, 2400.00000, 7731.69, -3.16374, 7725.71, -123.136, 7721.4, 116.81, 60.5052, 154.405, 60.5023, 34.3949, 60.4946, -85.5977
6, 3000.00000, 7698.16, -3.98363, 7691.89, -123.954, 7687.38, 115.99, 75.0502, 153.677, 75.0462, 33.6667, 75.0366, -86.3255
7, 0.00000, 7660.51, -4.129, 7654.18, -124.099, 7649.67, 115.844, 77.5395, 153.633, 77.5352, 33.6231, 77.5253, -86.369
7, 600.00000, 7645.87, -4.17317, 7679.57, -124.166, 7678.12, 115.766, 78.562, 153.556, 78.7038, 33.5656, 78.644, -86.5285
7, 1200.00000, 7675.45, -4.05951, 7709.34, -124.052, 7707.79, 115.881, 76.6071, 153.59, 76.7459, 33.6, 76.6877, -86.4946
7, 1800.00000, 7644.58, -4.17887, 7678.07, -124.171, 7676.57, 115.76, 78.6482, 153.554, 78.7899, 33.5633, 78.7301, -86.5306
7, 2400.00000, 7689.04, -4.00882, 7722.67, -123.999, 7720.85, 115.931, 75.7166, 153.605, 75.8535, 33.6147, 75.7959, -86.4796
7, 3000.00000, 7667.29, -4.27912, 7659.67, -124.242, 7654.31, 115.693, 80.0834, 153.471, 80.0768, 33.4592, 80.0662, -86.5309
8, 0.00000, 7670.05, -4.26932, 7662.22, -124.231, 7656.75, 115.703, 79.9054, 153.474, 79.8983, 33.4621, 79.8879, -86.5277
8, 600.00000, 7672.81, -4.25905, 7664.89, -124.22, 7659.54, 115.714, 79.7276, 153.477, 79.7201, 33.4656, 79.7105, -86.5242
8, 1200.00000, 7649.89, -4.34846, 7641.85, -124.309, 7636.77, 115.626, 81.2391, 153.45, 81.2309, 33.4399, 81.2226, -86.55
8, 1800.00000, 7655.42, -4.32801, 7647.14, -124.287, 7641.94, 115.647, 80.8838, 153.456, 80.8751, 33.4461, 80.8669, -86.5435
8, 2400.00000, 7690.75, -4.19231, 7682.26, -124.15, 7677.25, 115.784, 78.5737, 153.497, 78.5645, 33.4876, 78.5579, -86.5019
8, 3000.00000, 7634.12, -4.39752, 7665.27, -124.38, 7663.77, 115.544, 82.3459, 153.371, 82.4881, 33.3814, 82.43, -86.7094
9, 0.00000, 7653.22, -4.32456, 7684.31, -124.305, 7683.02, 115.62, 81.103, 153.393, 81.2426, 33.4044, 81.187, -86.6867
9, 600.00000, 7650.56, -4.33507, 7681.57, -124.316, 7680.34, 115.609, 81.2791, 153.389, 81.4188, 33.4012, 81.3635, -86.6899
9, 1200.00000, 7647.94, -4.52931, 7639.06, -124.484, 7634.63, 115.451, 84.3132, 153.277, 84.3017, 33.2699, 84.2982, -86.7197
9, 1800.00000, 7624.35, -4.79042, 7615.41, -124.745, 7611.1, 115.191, 88.7183, 153.081, 88.7058, 33.0742, 88.7029, -86.9154
9, 2400.00000, 7636.66, -4.74238, 7627.69, -124.697, 7623.41, 115.239, 87.9176, 153.095, 87.9051, 33.0884, 87.9025, -86.9012
9, 3000.00000, 7743.39, -4.32942, 7734.45, -124.284, 7730.29, 115.653, 80.9902, 153.218, 80.9787, 33.212, 80.9768, -86.7779
10, 0.00000, 7661.26, -4.64576, 7652.41, -124.601, 7648.39, 115.337, 86.3118, 153.122, 86.2996, 33.1162, 86.298, -86.8739
10, 600.00000, 7674.89, -4.59338, 7665.98, -124.548, 7662.06, 115.39, 85.4309, 153.139, 85.4185, 33.1338, 85.4176, -86.8562
10, 1200.00000, 7758.42, -4.2725, 7749.41, -124.227, 7745.51, 115.711, 80.0187, 153.237, 80.0068, 33.2315, 80.0063, -86.7585
10, 1800.00000, 7782.71, -4.01114, 7773.69, -123.966, 7769.93, 115.972, 75.5093, 153.43, 75.4984, 33.4248, 75.4979, -86.5654
10, 2400.00000, 7635.13, -4.74827, 7626.21, -124.702, 7622.47, 115.236, 88.0074, 153.093, 87.9945, 33.0885, 87.9945, -86.9018
10, 3000.00000, 7655.63, -4.66812, 7646.76, -124.622, 7643.05, 115.316, 86.6756, 153.117, 86.6629, 33.1124, 86.6629, -86.8779
11, 0.00000, 7644.75, -4.71019, 7635.93, -124.665, 7632.29, 115.274, 87.3833, 153.104, 87.3706, 33.0993, 87.3707, -86.8911
11, 600.00000, 7730.97, -4.37592, 7722.31, -124.332, 7718.79, 115.609, 81.7894, 153.204, 81.7777, 33.1994, 81.778, -86.7913
11, 1200.00000, 7640.94, -4.89123, 7632.52, -124.848, 7629.24, 115.095, 90.4568, 152.932, 90.4441, 32.9285, 90.445, -87.0626
11, 1800.00000, 7662.96, -4.8047, 7654.69, -124.762, 7651.52, 115.181, 89.0373, 152.958, 89.0251, 32.9545, 89.0261, -87.0368
11, 2400.00000, 7658.8, -4.81918, 7650.9, -124.779, 7648, 115.168, 89.2977, 152.952, 89.286, 32.9491, 89.2875, -87.0428
11, 3000.00000, 7702.82, -4.64841, 7694.98, -124.609, 7692.14, 115.339, 86.4656, 153.005, 86.4543, 33.0019, 86.4558, -86.99
12, 0.00000, 7792.15, -3.63133, 7784.49, -123.593, 7781.71, 116.356, 68.9025, 153.78, 68.8941, 33.7763, 68.8949, -86.216
12, 600.00000, 7692.26, -4.01064, 7685.01, -123.974, 7682.57, 115.977, 75.4906, 153.667, 75.4819, 33.6646, 75.4834, -86.3284
12, 1200.00000, 7668.74, -4.2708, 7661.78, -124.235, 7659.55, 115.718, 79.9944, 153.471, 79.9857, 33.469, 79.9874, -86.5245
12, 1800.00000, 7691.61, -4.18137, 7684.94, -124.147, 7682.91, 115.808, 78.4824, 153.497, 78.4742, 33.4957, 78.4762, -86.4982
12, 2400.00000, 7759.23, -3.92209, 7752.66, -123.888, 7750.65, 116.067, 74.0359, 153.575, 74.0283, 33.5732, 74.0302, -86.4209
12, 3000.00000, 7780.95, -3.67055, 7774.01, -123.636, 7771.8, 116.317, 69.6152, 153.767, 69.6077, 33.7652, 69.6091, -86.2283
13, 0.00000, 7801.09, -3.59386, 7794.32, -123.56, 7792.24, 116.395, 68.2797, 153.79, 68.2726, 33.7883, 68.2741, -86.2055
13, 600.00000, 7724.5, -3.88701, 7717.25, -123.85, 7714.73, 116.1, 73.3575, 153.704, 73.3492, 33.7016, 73.3502, -86.2913
13, 1200.00000, 7787.65, -3.64584, 7780.55, -123.61, 7778.24, 116.342, 69.1705, 153.775, 69.163, 33.7727, 69.1641, -86.2207
13, 1800.00000, 7717.4, -3.91277, 7710.52, -123.877, 7708.24, 116.075, 73.7995, 153.696, 73.7918, 33.6937, 73.7931, -86.2999
13, 2400.00000, 7720.88, -3.90708, 7712.08, -123.863, 7708.33, 116.076, 73.6256, 153.7, 73.6154, 33.6946, 73.6146, -86.2958
13, 3000.00000, 7689.88, -4.02716, 7680.84, -123.981, 7676.87, 115.955, 75.6734, 153.665, 75.6626, 33.6591, 75.6614, -86.331
14, 0.00000, 7672.42, -4.09644, 7662.93, -124.048, 7658.57, 115.884, 76.8307, 153.645, 76.8192, 33.6384, 76.8174, -86.351
14, 600.00000, 7677.22, -4.24904, 7667.72, -124.2, 7663.05, 115.732, 79.4618, 153.48, 79.45, 33.4734, 79.4475, -86.5158
14, 1200.00000, 7655.51, -4.33336, 7645.95, -124.284, 7641.17, 115.647, 80.8821, 153.455, 80.8701, 33.4476, 80.8672, -86.5414
14, 1800.00000, 7670.39, -4.44484, 7660.93, -124.395, 7656.19, 115.535, 82.8023, 153.303, 82.7904, 33.296, 82.7873, -86.6933
14, 2400.00000, 7790.56, -3.81427, 7781.15, -123.767, 7776.42, 116.164, 71.9833, 153.608, 71.9735, 33.6005, 71.9701, -86.3889
14, 3000.00000, 7655.27, -4.50297, 7645.94, -124.454, 7641.11, 115.476, 83.7797, 153.286, 83.7682, 33.2783, 83.7643, -86.7111
15, 0.00000, 7691.79, -4.36051, 7682.69, -124.313, 7677.68, 115.617, 81.381, 153.329, 81.3707, 33.3203, 81.3655, -86.6693
15, 600.00000, 7755.77, -3.94885, 7743.75, -123.894, 7782.61, 116.005, 74.3425, 153.486, 74.3806, 33.5807, 74.4676, -86.4918
15, 1200.00000, 7795.42, -3.793, 7786.71, -123.749, 7781.95, 116.184, 71.6268, 153.614, 71.6189, 33.6061, 71.6139, -86.3843
15, 1800.00000, 7788.45, -3.81829, 7780, -123.775, 7775.32, 116.158, 72.0719, 153.607, 72.0644, 33.5985, 72.0591, -86.3922
15, 2400.00000, 7789.49, -3.64356, 7781.29, -123.602, 7776.57, 116.333, 68.9903, 153.778, 68.9836, 33.7692, 68.9779, -86.2217
15, 3000.00000, 7795.27, -3.44935, 7787.46, -123.411, 7782.33, 116.524, 65.5517, 153.956, 65.5465, 33.9452, 65.5389, -86.0457
16, 0.00000, 7677.27, -3.89834, 7669.64, -123.86, 7664.47, 116.073, 73.3926, 153.823, 73.3872, 33.8124, 73.378, -86.1786
16, 600.00000, 7674.18, -4.25201, 7666.69, -124.214, 7661.21, 115.719, 79.5478, 153.479, 79.5425, 33.4675, 79.5312, -86.5234
16, 1200.00000, 7652.51, -4.33562, 7645.09, -124.298, 7639.6, 115.635, 80.969, 153.454, 80.9636, 33.4422, 80.952, -86.5487
16, 1800.00000, 7661.81, -4.2991, 7654.5, -124.262, 7648.87, 115.67, 80.3483, 153.465, 80.3434, 33.453, 80.331, -86.5379
16, 2400.00000, 7667.13, -4.27816, 7659.9, -124.242, 7654.3, 115.691, 79.9921, 153.471, 79.9875, 33.4592, 79.9751, -86.5319
16, 3000.00000, 7691.33, -4.18382, 7684.18, -124.148, 7678.7, 115.785, 78.392, 153.499, 78.388, 33.4872, 78.3755, -86.5042
17, 0.00000, 7708.75, -4.11561, 7701.88, -124.082, 7696.5, 115.853, 77.2347, 153.519, 77.2314, 33.5072, 77.2189, -86.4846
17, 600.00000, 7712.65, -4.09974, 7706.01, -124.067, 7700.81, 115.869, 76.9664, 153.523, 76.9636, 33.5118, 76.9514, -86.4805
17, 1200.00000, 7667.89, -4.27123, 7661.49, -124.239, 7656.4, 115.698, 79.8989, 153.472, 79.8964, 33.4604, 79.8837, -86.5323
17, 1800.00000, 7739.51, -3.99443, 7733.51, -123.964, 7728.6, 115.975, 75.1866, 153.554, 75.1851, 33.543, 75.1731, -86.4503
17, 2400.00000, 7721.78, -4.06167, 7715.95, -124.032, 7711.11, 115.908, 76.3427, 153.534, 76.3416, 33.5231, 76.3294, -86.4706
17, 3000.00000, 7776.89, -3.51341, 7768.57, -123.476, 7808.52, 116.436, 66.7582, 153.852, 66.8005, 33.9465, 66.8746, -86.1321
18, 0.00000, 7838.31, -2.58692, 7832.95, -122.559, 7828.38, 117.383, 49.9023, 154.696, 49.9027, 34.685, 49.8946, -85.3101
18, 600.00000, 7926.04, -1.19924, 7921.06, -121.172, 7916.47, 118.772, 23.4455, 155.852, 23.4459, 35.8415, 23.442, -84.154
18, 1200.00000, 7946.32, -0.763165, 7941.53, -120.737, 7936.98, 119.209, 14.8182, 156.235, 14.8184, 36.2246, 14.816, -83.7712
18, 1800.00000, 7944.69, -0.768618, 7939.98, -120.742, 7935.47, 119.203, 14.9086, 156.233, 14.9089, 36.2232, 14.9065, -83.7727
18, 2400.00000, 7967.49, -0.686901, 7962.75, -120.661, 7958.24, 119.285, 13.2781, 156.256, 13.2783, 36.2458, 13.2762, -83.7501
18, 3000.00000, 7982.58, -0.632827, 7977.86, -120.607, 7973.36, 119.339, 12.1903, 156.271, 12.1905, 36.2607, 12.1885, -83.7351
19, 0.00000, 7972.03, -0.66999, 7967.42, -120.644, 7962.99, 119.302, 12.9154, 156.261, 12.9157, 36.2506, 12.9136, -83.7454
19, 600.00000, 7976.88, -0.652006, 7972.43, -120.627, 7968.13, 119.321, 12.5529, 156.266, 12.5532, 36.2561, 12.5512, -83.7401
19, 1200.00000, 7989.57, -0.606306, 7985.23, -120.582, 7981.03, 119.367, 11.646, 156.278, 11.6463, 36.2685, 11.6445, -83.7279
19, 1800.00000, 7990.8, -0.601284, 7986.62, -120.578, 7982.59, 119.373, 11.5554, 156.279, 11.5557, 36.2702, 11.5539, -83.7264
19, 2400.00000, 7992.06, -0.595925, 7988.12, -120.574, 7984.31, 119.379, 11.4647, 156.28, 11.465, 36.2718, 11.4633, -83.7252
19, 3000.00000, 7988.26, -0.60928, 7984.37, -120.587, 7980.6, 119.366, 11.7367, 156.276, 11.737, 36.2679, 11.7353, -83.7291
20, 0.00000, 7978.11, -0.645268, 7974.29, -120.624, 7970.58, 119.331, 12.4622, 156.267, 12.4625, 36.2583, 12.4607, -83.7388
20, 600.00000, 7986.99, -0.613397, 7983.22, -120.592, 7979.56, 119.363, 11.8275, 156.275, 11.8278, 36.2672, 11.8261, -83.73
20, 1200.00000, 7978.07, -0.6449, 7974.39, -120.624, 7970.8, 119.331, 12.4622, 156.267, 12.4625, 36.2585, 12.4608, -83.7388
20, 1800.00000, 7984.58, -0.622752, 7980.59, -120.601, 7976.79, 119.353, 12.0089, 156.273, 12.0091, 36.2644, 12.0074, -83.7324
20, 2400.00000, 7976.96, -0.649894, 7972.99, -120.628, 7969.19, 119.326, 12.5527, 156.265, 12.553, 36.2565, 12.5512, -83.7404
20, 3000.00000, 7974.45, -0.658718, 7970.52, -120.637, 7966.77, 119.317, 12.7341, 156.263, 12.7344, 36.2544, 12.7326, -83.7425
21, 0.00000, 7950.34, -0.562588, 7946.06, -120.54, 7993.37, 119.41, 10.8122, 156.328, 10.8198, 36.4409, 10.8345, -83.6503
21, 600.00000, 7945.31, -0.580523, 7941.03, -120.558, 7988.36, 119.393, 11.1745, 156.323, 11.1823, 36.4359, 11.1976, -83.6552
21, 1200.00000, 7956.34, -0.540285, 7952.58, -120.52, 7949.04, 119.437, 10.3657, 156.428, 10.3659, 36.4197, 10.3645, -83.5772
21, 1800.00000, 7952.39, -0.55409, 7948.7, -120.534, 7945.23, 119.423, 10.6376, 156.424, 10.6378, 36.416, 10.6365, -83.581
21, 2400.00000, 7943.33, -0.58631, 7939.65, -120.566, 7936.28, 119.392, 11.2722, 156.415, 11.2724, 36.4074, 11.271, -83.5895
21, 3000.00000, 7945.82, -0.577395, 7942.12, -120.558, 7938.75, 119.401, 11.0909, 156.418, 11.0911, 36.4099, 11.0897, -83.5869
22, 0.00000, 7939.48, -0.60023, 7935.75, -120.58, 7932.37, 119.378, 11.5441, 156.411, 11.5442, 36.4036, 11.5428, -83.5931
22, 600.00000, 7955.94, -0.541207, 7952.21, -120.521, 7948.85, 119.437, 10.3656, 156.428, 10.3658, 36.4198, 10.3645, -83.5769
22, 1200.00000, 7950.94, -0.559137, 7947.21, -120.539, 7943.85, 119.419, 10.7283, 156.422, 10.7284, 36.4148, 10.7271, -83.5819
22, 1800.00000, 7939.6, -0.599965, 7935.81, -120.58, 7932.44, 119.378, 11.5441, 156.411, 11.5442, 36.4037, 11.5428, -83.5929
22, 2400.00000, 7956.07, -0.540993, 7952.26, -120.521, 7948.88, 119.437, 10.3657, 156.428, 10.3658, 36.4198, 10.3645, -83.5767
22, 3000.00000, 7952.33, -0.554379, 7948.53, -120.534, 7945.15, 119.424, 10.6377, 156.424, 10.6377, 36.4161, 10.6365, -83.5805
23, 0.00000, 7948.67, -0.567211, 7944.97, -120.548, 7941.67, 119.412, 10.9097, 156.42, 10.9098, 36.4127, 10.9085, -83.584
23, 600.00000, 7950.1, -0.562422, 7946.31, -120.543, 7942.96, 119.416, 10.8191, 156.422, 10.8192, 36.4139, 10.8179, -83.5826
23, 1200.00000, 7860.86, -0.885234, 7856.97, -120.865, 7853.6, 119.093, 17.246, 156.333, 17.2461, 36.325, 17.244, -83.6713
23, 1800.00000, 7839.89, -0.95842, 7885.47, -120.944, 7882.88, 119.013, 18.7705, 156.245, 18.8109, 36.2639, 18.7961, -83.8522
23, 2400.00000, 7882.45, -0.99044, 7878.36, -120.97, 7874.93, 118.988, 19.3412, 156.171, 19.3411, 36.1633, 19.3388, -83.8326
23, 3000.00000, 7888.81, -0.967127, 7884.76, -120.947, 7881.42, 119.012, 18.8896, 156.178, 18.8895, 36.1702, 18.8873, -83.8257
24, 0.00000, 7872.39, -1.02655, 7868.4, -121.007, 7865.14, 118.953, 20.0634, 156.16, 20.0632, 36.1528, 20.061, -83.8431
