hour, t(sec), V1, VAngle1, V2, VAngle2, V3, VAngle3, V4, VAngle4, I1, IAngle1, I2, IAngle2, I3, IAngle3, I4, IAngle4
0, 600.00000, 125.442, -32.6396, 125.743, -152.727, 125.581, 87.1412, 2.02864E-006, 138.915, 61.3883, 122.951, 62.6123, 9.58387, 69.2633, -111.081, 4.36277, 141.934
0, 1200.00000, 124.281, -32.9274, 124.589, -153.013, 124.424, 86.8507, 1.99403E-006, 138.017, 60.9781, 122.76, 62.0534, 9.50979, 68.8635, -111.167, 4.28519, 141.188
0, 1800.00000, 124.661, -32.8278, 124.976, -152.92, 124.794, 86.9435, 1.99385E-006, 137.086, 60.9201, 122.706, 62.1801, 9.70282, 69.1855, -111.244, 4.29475, 140.307
0, 2400.00000, 124.578, -32.8575, 124.893, -152.948, 124.717, 86.9143, 2.02325E-006, 138.122, 61.5514, 122.722, 62.7572, 9.62308, 69.7521, -111.219, 4.33782, 140.68
0, 3000.00000, 124.78, -32.7994, 125.095, -152.891, 124.914, 86.9718, 2.00282E-006, 137.163, 61.0585, 122.725, 62.3316, 9.70745, 69.3311, -111.231, 4.31338, 140.419
1, 0.00000, 124.522, -32.8661, 124.832, -152.954, 124.661, 86.9096, 1.99759E-006, 137.658, 61.0395, 122.757, 62.1937, 9.58475, 69.0648, -111.185, 4.3, 140.951
1, 600.00000, 124.667, -32.8304, 124.968, -152.915, 124.81, 86.9514, 1.99674E-006, 138.414, 60.9712, 122.859, 62.0568, 9.49303, 68.7253, -111.107, 4.3009, 141.734
1, 1200.00000, 124.756, -32.7977, 125.053, -152.882, 124.895, 86.9866, 1.96986E-006, 138.441, 60.158, 122.882, 61.2603, 9.53188, 67.8456, -111.1, 4.2449, 141.671
1, 1800.00000, 124.991, -32.725, 125.281, -152.809, 125.126, 87.0639, 1.93937E-006, 138.535, 59.0772, 122.946, 60.2022, 9.57321, 66.6262, -111.07, 4.17691, 141.794
1, 2400.00000, 124.691, -32.7966, 124.974, -152.876, 124.831, 86.9983, 1.91998E-006, 139.055, 58.6134, 122.986, 59.6101, 9.45149, 65.8597, -111.015, 4.13286, 142.336
1, 3000.00000, 125.017, -32.7111, 125.291, -152.788, 125.157, 87.0899, 1.91366E-006, 139.791, 58.2399, 123.106, 59.2121, 9.40761, 65.2485, -110.934, 4.12115, 143.045
2, 0.00000, 124.618, -32.8104, 124.894, -152.886, 124.76, 86.9898, 1.90141E-006, 139.5, 58.1279, 123.042, 59.0521, 9.37751, 65.1371, -110.968, 4.09282, 142.788
2, 600.00000, 125.17, -32.6611, 125.448, -152.741, 125.302, 87.1364, 1.89005E-006, 139.022, 57.486, 123.051, 58.5795, 9.57212, 64.7187, -111.001, 4.07107, 142.216
2, 1200.00000, 124.86, -32.7376, 125.138, -152.817, 124.993, 87.0604, 1.87876E-006, 138.836, 57.3354, 123.017, 58.3769, 9.53091, 64.5161, -111.016, 4.04406, 142.136
2, 1800.00000, 125.191, -32.6538, 125.468, -152.734, 125.323, 87.1445, 1.88358E-006, 138.989, 57.3246, 123.06, 58.4196, 9.57438, 64.5328, -111.002, 4.05663, 142.219
2, 2400.00000, 124.719, -32.7721, 125.001, -152.853, 124.851, 87.0231, 1.87611E-006, 138.39, 57.3159, 122.955, 58.3812, 9.57311, 64.621, -111.06, 4.03718, 141.701
2, 3000.00000, 124.975, -32.7103, 125.257, -152.791, 125.107, 87.0851, 1.88856E-006, 138.686, 57.5448, 122.998, 58.6352, 9.58132, 64.8508, -111.033, 4.06729, 141.929
3, 0.00000, 124.908, -32.7261, 125.189, -152.807, 125.039, 87.0691, 1.8856E-006, 138.614, 57.451, 122.982, 58.54, 9.58643, 64.7685, -111.043, 4.05832, 141.832
3, 600.00000, 125.1, -32.6772, 125.381, -152.759, 125.23, 87.1179, 1.88577E-006, 138.726, 57.4197, 123.003, 58.5453, 9.62113, 64.7689, -111.043, 4.0592, 141.799
3, 1200.00000, 124.779, -32.7544, 125.075, -152.842, 124.902, 87.0301, 1.88124E-006, 137.003, 57.4053, 122.804, 58.6483, 9.79348, 65.2246, -111.194, 4.04764, 140.285
3, 1800.00000, 125.013, -32.6817, 125.324, -152.778, 125.12, 87.0907, 1.86227E-006, 135.098, 56.6889, 122.621, 58.2019, 10.1508, 65.1556, -111.368, 4.01117, 138.221
3, 2400.00000, 124.862, -32.7087, 125.185, -152.811, 124.959, 87.0543, 1.84561E-006, 133.306, 56.1031, 122.434, 57.7677, 10.3853, 65.0292, -111.517, 3.97044, 136.513
3, 3000.00000, 125.026, -32.6743, 125.366, -152.786, 125.111, 87.0758, 1.84893E-006, 131.497, 56.9609, 122.279, 58.8635, 10.5819, 66.5375, -111.742, 3.98259, 134.59
4, 0.00000, 124.627, -32.7737, 124.988, -152.894, 124.703, 86.9609, 1.86156E-006, 129.104, 57.2201, 122.004, 59.2885, 10.8069, 67.4787, -111.942, 3.99738, 132.429
4, 600.00000, 125.008, -32.6784, 125.387, -152.808, 125.07, 87.0422, 1.86755E-006, 127.407, 57.6712, 121.849, 60.024, 11.0877, 68.6547, -112.124, 4.03163, 130.447
4, 1200.00000, 124.673, -32.7699, 125.065, -152.904, 124.73, 86.9414, 1.88476E-006, 125.863, 58.3948, 121.702, 60.8225, 11.1341, 69.7637, -112.265, 4.04669, 129.216
4, 1800.00000, 124.861, -32.7317, 125.278, -152.879, 124.902, 86.9599, 1.90918E-006, 123.555, 59.5912, 121.481, 62.3361, 11.3968, 71.9152, -112.505, 4.11702, 126.71
4, 2400.00000, 124.675, -32.7842, 125.096, -152.932, 124.719, 86.9051, 1.94484E-006, 122.225, 60.0551, 121.451, 62.7841, 11.3574, 72.4405, -112.52, 4.14172, 126.706
4, 3000.00000, 124.616, -32.8036, 125.037, -152.951, 124.661, 86.8851, 1.93941E-006, 123.19, 60.3767, 121.453, 63.0894, 11.3226, 72.7657, -112.514, 4.15856, 126.846
5, 0.00000, 124.656, -32.799, 125.081, -152.948, 124.701, 86.8869, 1.94865E-006, 123.689, 60.8593, 121.444, 63.5989, 11.3233, 73.3613, -112.521, 4.19438, 126.828
5, 600.00000, 124.667, -32.7978, 125.097, -152.949, 124.71, 86.8847, 1.95921E-006, 123.023, 61.0581, 121.405, 63.8432, 11.3654, 73.7174, -112.548, 4.21515, 126.511
5, 1200.00000, 124.79, -32.7761, 125.221, -152.927, 124.836, 86.9058, 1.97442E-006, 124.796, 61.7844, 121.448, 64.5715, 11.3129, 74.4615, -112.521, 4.26315, 126.943
5, 1800.00000, 124.558, -32.8366, 124.993, -152.989, 124.604, 86.8422, 1.9872E-006, 123.391, 61.9704, 121.387, 64.7539, 11.3131, 74.7499, -112.555, 4.27162, 126.637
5, 2400.00000, 124.054, -32.9665, 124.487, -153.115, 124.106, 86.7144, 1.9789E-006, 123.598, 62.0093, 121.364, 64.6657, 11.195, 74.6043, -112.552, 4.24577, 126.878
5, 3000.00000, 123.591, -33.0777, 124.011, -153.219, 123.652, 86.6139, 1.93546E-006, 124.323, 61.2026, 121.425, 63.6495, 11.0225, 73.2558, -112.494, 4.15338, 127.671
6, 0.00000, 125.055, -32.6629, 125.491, -152.814, 125.105, 87.0196, 1.93429E-006, 125.213, 59.4675, 120.667, 62.0924, 11.0664, 72.0354, -112.87, 4.21097, 128.325
6, 600.00000, 124.14, -32.8946, 124.564, -153.049, 124.18, 86.7901, 1.95443E-006, 125.238, 59.2777, 120.645, 62.1414, 10.8774, 71.7675, -113.138, 4.18221, 128.596
6, 1200.00000, 121.854, -33.4819, 122.284, -153.631, 121.909, 86.1999, 1.92366E-006, 124.232, 59.0435, 120.344, 61.554, 10.6163, 71.3175, -113.27, 4.07536, 127.79
6, 1800.00000, 124.104, -32.9019, 124.532, -153.06, 124.138, 86.7789, 1.91581E-006, 125.01, 59.2189, 120.588, 62.2085, 10.9476, 71.9184, -113.223, 4.19049, 128.07
6, 2400.00000, 120.174, -33.9338, 120.615, -154.088, 120.228, 85.7377, 1.89499E-006, 123.627, 59.7777, 120.097, 62.3567, 10.4456, 72.3116, -113.555, 4.0798, 126.894
6, 3000.00000, 117.231, -34.6204, 117.667, -154.8, 117.241, 85.0335, 1.88649E-006, 122.437, 60.0333, 118.882, 63.4459, 9.45495, 73.2746, -115.227, 4.05368, 125.563
7, 0.00000, 116.757, -34.7383, 117.197, -154.929, 116.751, 84.9068, 1.88792E-006, 122.403, 60.0176, 118.556, 63.7993, 9.36617, 73.6831, -115.658, 4.06843, 125.354
7, 600.00000, 116.544, -34.7959, 116.971, -155.006, 116.497, 84.8425, 1.9173E-006, 121.099, 60.3937, 118.402, 65.0373, 9.14595, 74.6578, -116.376, 4.13443, 124.091
7, 1200.00000, 116.902, -34.7051, 117.347, -154.918, 116.858, 84.924, 1.94623E-006, 120.853, 60.6153, 118.47, 65.2841, 9.54895, 75.2614, -116.121, 4.18139, 124.167
7, 1800.00000, 116.515, -34.8109, 116.932, -155.039, 116.433, 84.8207, 1.95609E-006, 120.919, 60.9245, 118.422, 66.4051, 9.13381, 75.7859, -116.831, 4.22396, 123.939
7, 2400.00000, 117.037, -34.6768, 117.495, -154.916, 116.952, 84.9294, 2.01712E-006, 119.818, 61.5196, 118.308, 67.1316, 9.79996, 77.4305, -116.589, 4.32839, 122.45
7, 3000.00000, 116.202, -34.883, 116.662, -155.157, 116.053, 84.6969, 2.08582E-006, 114.318, 61.9181, 117.451, 68.7263, 9.35101, 79.2831, -117.931, 4.47541, 118.456
8, 0.00000, 116.217, -34.8851, 116.678, -155.175, 116.041, 84.6841, 2.11784E-006, 115.401, 62.5128, 117.408, 69.962, 9.40954, 80.5508, -118.231, 4.56792, 117.952
8, 600.00000, 116.282, -34.8572, 116.705, -155.171, 116.044, 84.7157, 2.08912E-006, 117.199, 61.4316, 117.53, 70.2287, 9.38181, 79.9625, -118.967, 4.58109, 118.251
8, 1200.00000, 116.069, -34.8876, 116.418, -155.247, 115.718, 84.6943, 2.12348E-006, 115.369, 59.0694, 117.703, 70.3485, 9.22269, 78.4122, -120.474, 4.57682, 118.891
8, 1800.00000, 116.128, -34.8685, 116.482, -155.247, 115.744, 84.6996, 2.16301E-006, 113.913, 59.0698, 117.574, 71.0664, 9.40807, 79.284, -120.808, 4.65193, 117.694
8, 2400.00000, 116.646, -34.7047, 116.932, -155.145, 116.115, 84.8615, 2.20073E-006, 113.721, 56.106, 118.118, 71.4094, 10.0018, 78.0944, -122.28, 4.67486, 117.727
8, 3000.00000, 115.95, -34.8709, 116.206, -155.315, 115.403, 84.7061, 2.12162E-006, 115.508, 55.2679, 117.747, 70.787, 9.34014, 76.941, -123.042, 4.6335, 117.864
9, 0.00000, 116.264, -34.7514, 116.436, -155.257, 115.563, 84.8309, 2.17692E-006, 114.244, 52.0943, 118.001, 70.9472, 9.42659, 75.4278, -125.083, 4.65011, 117.94
9, 600.00000, 116.248, -34.7498, 116.397, -155.271, 115.51, 84.8342, 2.15351E-006, 116.016, 51.5271, 118.073, 71.1965, 9.38649, 75.2459, -125.593, 4.66252, 118.153
9, 1200.00000, 115.74, -34.8673, 115.857, -155.411, 114.952, 84.7197, 2.13602E-006, 116.103, 50.2364, 118.037, 70.993, 9.22884, 74.4162, -126.5, 4.64505, 118.213
9, 1800.00000, 114.975, -35.0496, 115.066, -155.61, 114.149, 84.5398, 2.14392E-006, 114.312, 48.7988, 117.894, 70.343, 9.04035, 73.2863, -127.367, 4.60187, 118.001
9, 2400.00000, 115.123, -35.014, 115.199, -155.582, 114.277, 84.5785, 2.14698E-006, 115.631, 48.8877, 118.048, 70.9098, 8.98394, 73.5329, -127.572, 4.62735, 118.61
9, 3000.00000, 116.414, -34.6843, 116.451, -155.261, 115.529, 84.923, 2.15457E-006, 118.582, 48.9323, 118.697, 71.8826, 9.06493, 73.6883, -127.754, 4.66228, 120.572
10, 0.00000, 115.451, -34.9273, 115.469, -155.51, 114.556, 84.6859, 2.10619E-006, 119.075, 48.1571, 118.58, 71.3153, 8.732, 72.7299, -128.305, 4.61199, 120.917
10, 600.00000, 115.639, -34.8706, 115.621, -155.475, 114.688, 84.7474, 2.15059E-006, 118.547, 47.3683, 118.797, 71.7831, 8.69354, 72.534, -129.072, 4.63486, 121.508
10, 1200.00000, 116.672, -34.6022, 116.635, -155.231, 115.66, 85.0118, 2.16672E-006, 119.291, 46.7513, 119.522, 72.6276, 9.37881, 72.9382, -129.242, 4.68255, 121.973
10, 1800.00000, 117.481, -34.4065, 117.438, -155.038, 116.459, 85.2088, 2.20314E-006, 120.75, 47.6585, 119.752, 73.8492, 9.46461, 74.0126, -129.017, 4.75687, 123.11
10, 2400.00000, 115.188, -34.987, 115.126, -155.613, 114.186, 84.6406, 2.18023E-006, 118.277, 46.8249, 118.99, 72.3993, 8.3605, 72.2746, -129.96, 4.65245, 122.75
10, 3000.00000, 115.436, -34.9226, 115.37, -155.545, 114.436, 84.7088, 2.16708E-006, 118.535, 46.7872, 119.108, 72.3138, 8.38235, 72.0937, -129.899, 4.64291, 123.124
11, 0.00000, 115.328, -34.9386, 115.255, -155.562, 114.323, 84.6961, 2.12849E-006, 120.225, 45.8598, 119.09, 71.4519, 8.38693, 71.1319, -130.18, 4.58911, 122.98
11, 600.00000, 116.383, -34.6582, 116.296, -155.271, 115.38, 84.9902, 2.10101E-006, 121.425, 45.2094, 119.523, 70.7359, 8.56046, 70.0888, -130.084, 4.53452, 124.058
11, 1200.00000, 114.844, -35.0389, 114.739, -155.645, 113.857, 84.6242, 1.99503E-006, 123.215, 43.4111, 119.327, 68.4938, 8.05903, 67.4443, -130.804, 4.37461, 124.565
11, 1800.00000, 115.129, -34.9518, 115.018, -155.548, 114.152, 84.7204, 2.0005E-006, 120.897, 42.4431, 119.474, 67.2695, 8.11534, 66.0883, -130.882, 4.29357, 124.921
11, 2400.00000, 115.127, -34.9376, 114.992, -155.517, 114.167, 84.7579, 1.92769E-006, 122.495, 40.9385, 119.814, 65.3005, 7.89982, 63.5521, -131.188, 4.15028, 126.619
11, 3000.00000, 115.67, -34.7846, 115.529, -155.361, 114.707, 84.916, 1.91016E-006, 122.889, 40.0908, 119.986, 64.478, 8.06351, 62.643, -131.309, 4.09964, 126.729
12, 0.00000, 119.068, -34.0123, 118.97, -154.576, 118.125, 85.6754, 1.95969E-006, 125.248, 41.0177, 121.467, 65.3227, 9.96793, 63.9226, -129.1, 4.21841, 128.229
12, 600.00000, 117.705, -34.2809, 117.546, -154.83, 116.772, 85.445, 1.89964E-006, 127.923, 40.1422, 121.825, 64.0918, 8.86114, 61.4247, -129.994, 4.08227, 131.054
12, 1200.00000, 116.895, -34.481, 116.704, -155.02, 115.972, 85.2681, 1.84447E-006, 129.704, 39.4514, 121.723, 63.0895, 8.0257, 59.7656, -130.752, 3.97852, 133.002
12, 1800.00000, 117.196, -34.404, 116.982, -154.928, 116.29, 85.3653, 1.82827E-006, 132.021, 39.0818, 122.178, 62.3677, 7.7802, 58.4649, -130.763, 3.93665, 135.471
12, 2400.00000, 118.156, -34.264, 117.951, -154.769, 117.285, 85.5115, 1.84639E-006, 133.502, 39.8209, 122.729, 62.4268, 8.05743, 58.4821, -129.731, 3.98083, 136.757
12, 3000.00000, 118.972, -34.0492, 118.818, -154.573, 118.084, 85.6908, 1.90098E-006, 131.081, 40.6113, 122.48, 63.7198, 9.11307, 60.834, -128.981, 4.08598, 134.008
13, 0.00000, 119.245, -33.9755, 119.075, -154.491, 118.364, 85.7774, 1.88597E-006, 132.125, 40.2983, 122.753, 63.2528, 8.96038, 59.9824, -129.038, 4.06384, 135.52
13, 600.00000, 118.212, -34.2517, 118.073, -154.788, 117.308, 85.4715, 1.91532E-006, 128.859, 41.2635, 121.684, 64.6092, 8.8602, 62.265, -129.318, 4.12423, 131.138
13, 1200.00000, 119.024, -34.0547, 118.874, -154.586, 118.128, 85.6779, 1.9503E-006, 129.876, 42.0915, 122.42, 65.4701, 9.09799, 62.6535, -128.688, 4.20005, 133.992
13, 1800.00000, 118.106, -34.3204, 117.924, -154.838, 117.231, 85.4353, 1.95963E-006, 132.843, 43.2506, 122.425, 66.167, 8.08506, 62.6005, -128.867, 4.21796, 136.045
13, 2400.00000, 117.952, -34.3804, 117.944, -154.984, 116.991, 85.2348, 2.19551E-006, 119.414, 47.8575, 120, 72.753, 9.85225, 73.4128, -127.986, 4.72585, 122.918
13, 3000.00000, 117.37, -34.4621, 117.366, -155.084, 116.386, 85.1387, 2.27429E-006, 118.859, 49.957, 119.54, 75.4098, 9.48308, 76.2902, -128.157, 4.86415, 122.525
14, 0.00000, 117.075, -34.5708, 117.105, -155.213, 116.077, 84.9997, 2.365E-006, 118.501, 52.829, 119.217, 78.7255, 9.53224, 80.3501, -127.773, 5.10015, 121.101
14, 600.00000, 116.533, -34.7519, 116.583, -155.377, 115.586, 84.817, 2.40791E-006, 118.247, 55.6687, 119.211, 80.5441, 9.19952, 82.4588, -126.978, 5.18992, 121.873
14, 1200.00000, 116.201, -34.8594, 116.268, -155.466, 115.301, 84.7101, 2.4559E-006, 119.02, 57.8759, 118.752, 81.7119, 8.5977, 84.0316, -126.648, 5.26766, 122.063
14, 1800.00000, 115.807, -35.0065, 115.861, -155.596, 114.944, 84.5781, 2.48537E-006, 120.869, 60.5484, 119, 83.7549, 8.05899, 85.6056, -126.176, 5.35165, 124.647
14, 2400.00000, 117.934, -34.5768, 118.037, -155.145, 117.122, 84.9996, 2.53552E-006, 123.335, 62.5687, 119.98, 85.0168, 9.18884, 87.5234, -124.408, 5.47233, 125.825
14, 3000.00000, 115.579, -35.0924, 115.667, -155.652, 114.791, 84.4929, 2.46853E-006, 123.186, 62.516, 118.917, 84.1462, 7.90798, 86.5981, -125.289, 5.36539, 125.149
15, 0.00000, 115.945, -35.0382, 116.092, -155.544, 115.28, 84.5502, 2.50368E-006, 123.514, 65.7271, 118.96, 84.7593, 7.8664, 88.2834, -123.682, 5.39028, 126.117
15, 600.00000, 117.221, -34.7313, 117.414, -155.226, 116.595, 84.8448, 2.53649E-006, 125.023, 67.0696, 119.598, 85.5627, 8.85745, 89.8004, -122.385, 5.46448, 127.391
15, 1200.00000, 117.899, -34.6576, 118.063, -155.126, 117.307, 84.9475, 2.53138E-006, 125.712, 67.5568, 120.167, 85.3667, 8.63681, 88.8754, -121.918, 5.45119, 129.419
15, 1800.00000, 117.796, -34.7032, 117.966, -155.144, 117.261, 84.9157, 2.5243E-006, 128.316, 68.5974, 120.271, 85.1917, 8.40275, 88.7409, -121.334, 5.42727, 130.853
15, 2400.00000, 118.353, -34.5649, 118.556, -154.972, 117.891, 85.0587, 2.51109E-006, 127.444, 69.7738, 120.302, 84.777, 8.46159, 89.0202, -120.414, 5.41071, 131.47
15, 3000.00000, 118.917, -34.445, 119.277, -154.765, 118.683, 85.1579, 2.47737E-006, 127.903, 73.0344, 120.071, 83.1101, 9.19454, 90.816, -117.533, 5.32807, 130.579
16, 0.00000, 117.365, -34.8747, 117.74, -155.163, 117.2, 84.736, 2.44277E-006, 125.649, 73.9612, 119.539, 82.3926, 8.41411, 90.5616, -117.396, 5.23209, 130.122
16, 600.00000, 116.024, -35.1432, 116.44, -155.385, 115.963, 84.4721, 2.41368E-006, 125.811, 75.7622, 118.631, 81.6767, 7.41994, 90.9666, -117.073, 5.14296, 129.759
16, 1200.00000, 115.756, -35.2149, 116.181, -155.448, 115.715, 84.4004, 2.36778E-006, 126.997, 75.8928, 118.539, 81.344, 7.34931, 90.8637, -116.925, 5.12015, 129.728
16, 1800.00000, 115.815, -35.228, 116.277, -155.432, 115.846, 84.3865, 2.3927E-006, 126.527, 78.1536, 118.512, 82.11, 7.27079, 92.4925, -116.183, 5.15613, 130.254
16, 2400.00000, 115.87, -35.225, 116.327, -155.422, 115.915, 84.3962, 2.41267E-006, 128.307, 78.8159, 118.613, 82.5453, 7.1501, 92.7887, -116.042, 5.19125, 131.248
16, 3000.00000, 116.139, -35.1786, 116.596, -155.359, 116.222, 84.4526, 2.46204E-006, 129.55, 80.3461, 118.804, 83.4244, 7.00101, 93.6359, -115.601, 5.30563, 133.17
17, 0.00000, 116.343, -35.1413, 116.797, -155.296, 116.475, 84.5073, 2.46451E-006, 131.514, 81.2143, 119.002, 83.3028, 6.79268, 93.4289, -115.064, 5.3119, 135.118
17, 600.00000, 116.399, -35.1411, 116.821, -155.283, 116.548, 84.5305, 2.50856E-006, 134.004, 81.6435, 119.284, 83.529, 6.4539, 92.8377, -114.871, 5.41533, 137.923
17, 1200.00000, 115.869, -35.2795, 116.283, -155.404, 116.049, 84.4058, 2.50316E-006, 135.648, 81.2577, 119.255, 82.4827, 6.14718, 91.6011, -114.654, 5.39721, 139.22
17, 1800.00000, 116.797, -35.0396, 117.221, -155.141, 117.032, 84.6591, 2.53595E-006, 138.503, 80.4176, 119.996, 80.7563, 6.83863, 89.9632, -113.335, 5.47989, 142.421
17, 2400.00000, 116.552, -35.1153, 116.96, -155.186, 116.844, 84.607, 2.6237E-006, 141.596, 81.4528, 119.836, 80.6636, 6.00168, 89.5311, -113.086, 5.63719, 144.528
17, 3000.00000, 118.492, -34.731, 118.883, -154.784, 118.834, 85.0111, 2.88156E-006, 145.694, 83.627, 120.918, 82.4062, 6.50302, 90.773, -111.753, 6.17927, 148.464
18, 0.00000, 121.744, -33.9384, 122.084, -153.97, 122.12, 85.8412, 3.08537E-006, 148.186, 86.5579, 122.87, 85.0494, 7.32384, 92.3217, -110.01, 6.61467, 151.007
18, 600.00000, 126.799, -32.6645, 127.092, -152.704, 127.171, 87.1354, 3.44348E-006, 151.612, 88.4521, 123.788, 87.7159, 7.62835, 93.6382, -109.384, 7.38872, 154.562
18, 1200.00000, 128.459, -32.2638, 128.731, -152.304, 128.829, 87.546, 3.54474E-006, 152.876, 89.1632, 124.108, 88.6718, 7.67397, 94.022, -109.215, 7.60289, 155.793
18, 1800.00000, 128.358, -32.3431, 128.621, -152.376, 128.744, 87.4752, 3.57037E-006, 152.861, 93.2175, 124.171, 92.4958, 7.36822, 97.5642, -109.333, 7.71415, 156.502
18, 2400.00000, 128.664, -32.2722, 128.928, -152.31, 129.038, 87.5431, 3.56646E-006, 153.262, 93.6531, 124.179, 93.1177, 7.43706, 98.2279, -109.455, 7.65677, 156.213
18, 3000.00000, 128.842, -32.2472, 129.104, -152.286, 129.209, 87.5682, 3.52329E-006, 152.549, 95.1559, 124.195, 94.7122, 7.40444, 99.78, -109.611, 7.6067, 156.116
19, 0.00000, 128.616, -32.3584, 128.868, -152.39, 128.995, 87.4658, 3.55927E-006, 153.752, 99.2994, 124.23, 98.6315, 7.10628, 103.427, -109.78, 7.64004, 156.69
19, 600.00000, 128.661, -32.3689, 128.899, -152.395, 129.042, 87.4656, 3.50517E-006, 153.711, 100.763, 124.312, 99.9875, 6.93225, 104.431, -109.859, 7.56863, 157.266
19, 1200.00000, 128.862, -32.3103, 129.088, -152.334, 129.241, 87.5316, 3.47107E-006, 154.128, 99.8792, 124.4, 99.0827, 6.89317, 103.26, -109.812, 7.49931, 157.71
19, 1800.00000, 128.91, -32.2848, 129.126, -152.308, 129.275, 87.5639, 3.35468E-006, 154.323, 98.6709, 124.458, 97.9225, 6.85872, 101.875, -109.904, 7.24679, 157.813
19, 2400.00000, 128.982, -32.246, 129.177, -152.261, 129.347, 87.618, 3.3042E-006, 155.811, 96.6517, 124.603, 95.7577, 6.73054, 99.2135, -109.799, 7.08688, 158.729
19, 3000.00000, 128.945, -32.2467, 129.138, -152.262, 129.303, 87.6182, 3.24761E-006, 155.608, 95.9656, 124.604, 95.1106, 6.74029, 98.5481, -109.848, 6.9748, 158.621
20, 0.00000, 128.822, -32.269, 129.01, -152.282, 129.181, 87.6, 3.22493E-006, 155.873, 95.2491, 124.628, 94.3192, 6.69142, 97.6446, -109.812, 6.9225, 158.849
