hour, t(sec), S1 (kVA), Ang1, S2 (kVA), Ang2, S3 (kVA), Ang3
0, 600.00000, 967.021, 23.5697, 967.326, 23.5636, 972.96, 23.5946
0, 1200.00000, 1135.75, 23.5094, 1135.97, 23.5085, 1141.52, 23.5284
0, 1800.00000, 1080.53, 23.5288, 1080.81, 23.5267, 1086.46, 23.5519
0, 2400.00000, 1090.65, 23.5256, 1090.91, 23.5236, 1096.59, 23.5478
0, 3000.00000, 1062.93, 23.5352, 1063.22, 23.5326, 1068.89, 23.5589
1, 0.00000, 1100.64, 23.522, 1100.89, 23.5203, 1106.49, 23.5429
1, 600.00000, 1080.52, 23.5297, 1080.76, 23.5272, 1086.3, 23.5496
1, 1200.00000, 1070.37, 23.5332, 1070.61, 23.5305, 1076.09, 23.5532
1, 1800.00000, 1039.99, 23.5443, 1040.25, 23.5409, 1045.63, 23.5648
1, 2400.00000, 1085.24, 23.5285, 1085.45, 23.5263, 1090.72, 23.5458
1, 3000.00000, 1039.88, 23.5451, 1040.09, 23.5415, 1045.3, 23.5625
2, 0.00000, 1097.74, 23.5243, 1097.92, 23.5223, 1103.11, 23.54
2, 600.00000, 1019.61, 23.5518, 1019.85, 23.5479, 1025.08, 23.5714
2, 1200.00000, 1064.96, 23.5358, 1065.17, 23.5332, 1070.36, 23.5536
2, 1800.00000, 1017.06, 23.5528, 1017.31, 23.5489, 1022.51, 23.5723
2, 2400.00000, 1085.08, 23.5284, 1085.3, 23.5264, 1090.5, 23.5463
2, 3000.00000, 1047.36, 23.5419, 1047.59, 23.5388, 1052.83, 23.561
3, 0.00000, 1057.41, 23.5385, 1057.64, 23.5358, 1062.87, 23.5574
3, 600.00000, 1029.73, 23.5475, 1029.98, 23.5439, 1035.22, 23.5674
3, 1200.00000, 1075.04, 23.5312, 1075.31, 23.5293, 1080.64, 23.5525
3, 1800.00000, 1042.22, 23.5418, 1042.57, 23.5395, 1048.03, 23.5684
3, 2400.00000, 1064.82, 23.533, 1065.21, 23.5317, 1070.72, 23.5616
3, 3000.00000, 1037.23, 23.5419, 1037.69, 23.5403, 1043.36, 23.5758
4, 0.00000, 1092.65, 23.5212, 1093.13, 23.5215, 1098.96, 23.5565
4, 600.00000, 1034.81, 23.5406, 1035.4, 23.5397, 1041.42, 23.5836
4, 1200.00000, 1080.24, 23.5241, 1080.83, 23.5248, 1086.94, 23.5669
4, 1800.00000, 1047.67, 23.5343, 1048.38, 23.5345, 1054.74, 23.5851
4, 2400.00000, 1072.88, 23.5259, 1073.57, 23.5269, 1079.97, 23.5754
4, 3000.00000, 1080.49, 23.5228, 1081.17, 23.5241, 1087.59, 23.5718
5, 0.00000, 1073.03, 23.5251, 1073.72, 23.5261, 1080.19, 23.5752
5, 600.00000, 1070.53, 23.5258, 1071.24, 23.5268, 1077.76, 23.5771
5, 1200.00000, 1050.5, 23.5326, 1051.22, 23.5328, 1057.8, 23.5852
5, 1800.00000, 1083.22, 23.5213, 1083.93, 23.5227, 1090.53, 23.5724
5, 2400.00000, 1155.99, 23.4952, 1156.63, 23.4987, 1163.15, 23.5409
5, 3000.00000, 1225.84, 23.47, 1226.39, 23.4751, 1232.7, 23.5091
6, 0.00000, 1014.85, 23.5502, 1015.61, 23.5471, 1022.03, 23.6041
6, 600.00000, 1148.13, 23.5016, 1148.79, 23.5055, 1155.06, 23.5479
6, 1200.00000, 1475.52, 23.3766, 1475.94, 23.3875, 1482.01, 23.4077
6, 1800.00000, 1153.16, 23.499, 1153.84, 23.5036, 1160.14, 23.5465
6, 2400.00000, 1709.88, 23.2823, 1710.15, 23.2985, 1716.18, 23.3107
6, 3000.00000, 2100.98, 23.5797, 2101.07, 23.6067, 2106.73, 23.6066
7, 0.00000, 2164.63, 23.5749, 2164.71, 23.6035, 2170.32, 23.6024
7, 600.00000, 2191.9, 23.5723, 2191.97, 23.6048, 2197.63, 23.6025
7, 1200.00000, 2142.09, 23.5752, 2142.24, 23.6069, 2147.99, 23.6071
7, 1800.00000, 2194.28, 23.5709, 2194.39, 23.6063, 2200.09, 23.6039
7, 2400.00000, 2119.55, 23.5748, 2119.78, 23.6101, 2125.75, 23.6124
7, 3000.00000, 2228.36, 23.5667, 2228.54, 23.6089, 2234.72, 23.6083
8, 0.00000, 2223.98, 23.5659, 2224.19, 23.6106, 2230.46, 23.6105
8, 600.00000, 2219.44, 23.5644, 2219.7, 23.613, 2225.84, 23.6123
8, 1200.00000, 2257.57, 23.5587, 2257.85, 23.6152, 2263.65, 23.6137
8, 1800.00000, 2248.64, 23.5581, 2248.98, 23.6173, 2254.88, 23.6169
8, 2400.00000, 2189.94, 23.5573, 2190.46, 23.6248, 2196.1, 23.6236
8, 3000.00000, 2286.56, 23.5513, 2286.96, 23.6202, 2292.42, 23.6167
9, 0.00000, 2255.04, 23.5499, 2255.58, 23.6285, 2260.73, 23.6245
9, 600.00000, 2259.52, 23.5487, 2260.07, 23.6297, 2265.14, 23.6251
9, 1200.00000, 2333.21, 23.5425, 2333.72, 23.6257, 2338.59, 23.6183
9, 1800.00000, 2441.61, 23.5351, 2442.03, 23.6191, 2446.67, 23.6084
9, 2400.00000, 2421.81, 23.5359, 2422.26, 23.6214, 2426.87, 23.6108
9, 3000.00000, 2248.21, 23.5459, 2248.83, 23.6362, 2253.44, 23.6286
10, 0.00000, 2382, 23.5371, 2382.48, 23.6257, 2386.87, 23.6141
10, 600.00000, 2359.8, 23.5379, 2360.33, 23.6303, 2364.61, 23.6183
10, 1200.00000, 2223.41, 23.5431, 2224.15, 23.6413, 2228.42, 23.6333
10, 1800.00000, 2110.28, 23.5493, 2111.14, 23.6502, 2115.48, 23.6433
10, 2400.00000, 2424.01, 23.5331, 2424.48, 23.6275, 2428.54, 23.6127
10, 3000.00000, 2390.85, 23.5354, 2391.35, 23.63, 2395.4, 23.6158
11, 0.00000, 2408.44, 23.534, 2408.93, 23.6282, 2412.9, 23.6135
11, 600.00000, 2268.13, 23.5429, 2268.75, 23.639, 2272.69, 23.6268
11, 1200.00000, 2482.94, 23.5292, 2483.33, 23.6193, 2486.92, 23.6018
11, 1800.00000, 2447.64, 23.5337, 2448.05, 23.623, 2451.57, 23.6061
11, 2400.00000, 2454.01, 23.5342, 2454.39, 23.621, 2457.67, 23.6031
11, 3000.00000, 2383.27, 23.5392, 2383.72, 23.6269, 2386.97, 23.6102
12, 0.00000, 1930.64, 23.1636, 1931.57, 23.2572, 1935.14, 23.2521
12, 600.00000, 2111.44, 23.5544, 2112.09, 23.6441, 2115.23, 23.6302
12, 1200.00000, 2224.54, 23.5495, 2225.05, 23.6354, 2227.89, 23.6177
12, 1800.00000, 2186.11, 23.5532, 2186.6, 23.6383, 2189.27, 23.6202
12, 2400.00000, 2066.21, 23.1158, 2066.77, 23.2003, 2069.52, 23.1842
12, 3000.00000, 1949.61, 23.1594, 1950.37, 23.2481, 1953.46, 23.2377
13, 0.00000, 1913.66, 23.1741, 1914.42, 23.2631, 1917.38, 23.2525
13, 600.00000, 2049.84, 23.12, 2050.54, 23.2086, 2053.82, 23.1985
13, 1200.00000, 1937.87, 23.1634, 1938.64, 23.2537, 1941.85, 23.2438
13, 1800.00000, 2061.93, 23.1166, 2062.51, 23.2038, 2065.57, 23.1899
13, 2400.00000, 2057.99, 23.1119, 2058.88, 23.2081, 2063.39, 23.2064
13, 3000.00000, 2117.34, 23.5497, 2118.18, 23.6489, 2122.78, 23.643
14, 0.00000, 2147.28, 23.5465, 2148.13, 23.6479, 2153.08, 23.643
14, 600.00000, 2213.16, 23.5436, 2213.88, 23.6423, 2218.95, 23.6373
14, 1200.00000, 2249.37, 23.5441, 2249.97, 23.6404, 2255.21, 23.6338
14, 1800.00000, 2296.69, 23.5426, 2297.16, 23.6367, 2302.35, 23.6269
14, 2400.00000, 2014.49, 23.1317, 2015.27, 23.2241, 2020.9, 23.2263
14, 3000.00000, 2321.37, 23.543, 2321.75, 23.6324, 2327.06, 23.6222
15, 0.00000, 2261.17, 23.55, 2261.52, 23.6327, 2267.12, 23.6247
15, 600.00000, 2084.69, 23.5594, 2085.26, 23.6395, 2091.08, 23.6374
15, 1200.00000, 2005.22, 23.1428, 2005.77, 23.2199, 2011.58, 23.2203
15, 1800.00000, 2017.17, 23.1402, 2017.63, 23.213, 2023.4, 23.2117
15, 2400.00000, 1936.03, 23.1749, 1936.5, 23.2427, 1942.44, 23.2446
15, 3000.00000, 1844.91, 23.2167, 1845.36, 23.2659, 1851.91, 23.2767
16, 0.00000, 2055.3, 23.1362, 2055.47, 23.1816, 2061.92, 23.1832
16, 600.00000, 2216.41, 23.571, 2216.35, 23.6128, 2222.78, 23.6066
16, 1200.00000, 2252.39, 23.5682, 2252.29, 23.6095, 2258.71, 23.6046
16, 1800.00000, 2236.82, 23.5713, 2236.68, 23.6083, 2243.27, 23.6043
16, 2400.00000, 2227.88, 23.5725, 2227.72, 23.6086, 2234.3, 23.6043
16, 3000.00000, 2187.41, 23.5768, 2187.21, 23.61, 2193.88, 23.6038
17, 0.00000, 2158.01, 23.5806, 2157.76, 23.61, 2164.38, 23.6035
17, 600.00000, 2151.24, 23.582, 2150.92, 23.6105, 2157.41, 23.6018
17, 1200.00000, 2225.71, 23.578, 2225.3, 23.6051, 2231.63, 23.5935
17, 1800.00000, 2105.48, 23.5857, 2105.12, 23.6065, 2111.4, 23.598
17, 2400.00000, 2135.12, 23.5871, 2134.61, 23.6057, 2140.89, 23.5939
17, 3000.00000, 1879.06, 23.2253, 1878.56, 23.2357, 1885.2, 23.2269
18, 0.00000, 1424.73, 23.4049, 1424.32, 23.4046, 1431.36, 23.4012
18, 600.00000, 689.547, 23.6687, 689.505, 23.6298, 697.044, 23.6746
18, 1200.00000, 443.11, 23.7165, 443.174, 23.6374, 450.8, 23.7313
18, 1800.00000, 446.25, 23.7205, 446.25, 23.6411, 453.843, 23.7266
18, 2400.00000, 399.182, 23.721, 399.241, 23.6295, 406.85, 23.7349
18, 3000.00000, 367.886, 23.7198, 367.973, 23.6189, 375.561, 23.7382
19, 0.00000, 389.429, 23.7263, 389.448, 23.6325, 396.942, 23.7335
19, 600.00000, 379.124, 23.7287, 379.103, 23.6332, 386.418, 23.7284
19, 1200.00000, 352.737, 23.7269, 352.703, 23.6238, 359.878, 23.7225
19, 1800.00000, 349.955, 23.7262, 349.916, 23.6265, 356.833, 23.7196
19, 2400.00000, 347.064, 23.727, 346.963, 23.6299, 353.564, 23.7082
19, 3000.00000, 354.865, 23.7274, 354.769, 23.6347, 361.283, 23.7096
20, 0.00000, 375.791, 23.7295, 375.666, 23.6443, 382.084, 23.7084
20, 600.00000, 357.361, 23.7284, 357.226, 23.638, 363.59, 23.7039
20, 1200.00000, 375.701, 23.731, 375.523, 23.6468, 381.783, 23.7009
20, 1800.00000, 362.623, 23.7255, 362.58, 23.6363, 369.136, 23.7171
20, 2400.00000, 378.367, 23.727, 378.314, 23.6427, 384.853, 23.7177
20, 3000.00000, 383.516, 23.7269, 383.453, 23.645, 389.918, 23.716
21, 0.00000, 328.192, 23.7195, 328.146, 23.6207, 334.547, 23.708
21, 600.00000, 338.665, 23.7202, 338.654, 23.6284, 344.943, 23.7147
21, 1200.00000, 314.839, 23.7132, 314.861, 23.6159, 321.024, 23.7122
21, 1800.00000, 322.919, 23.7165, 322.944, 23.625, 328.977, 23.7159
21, 2400.00000, 341.651, 23.7205, 341.731, 23.64, 347.598, 23.7289
21, 3000.00000, 336.443, 23.7188, 336.556, 23.638, 342.404, 23.7329
22, 0.00000, 349.681, 23.7206, 349.82, 23.6448, 355.661, 23.7387
22, 600.00000, 315.339, 23.7118, 315.508, 23.6261, 321.332, 23.7364
22, 1200.00000, 325.799, 23.7141, 325.97, 23.6322, 331.785, 23.7384
22, 1800.00000, 349.508, 23.7178, 349.702, 23.6437, 355.525, 23.7449
22, 2400.00000, 315.176, 23.7084, 315.408, 23.6244, 321.242, 23.7445
22, 3000.00000, 322.983, 23.7125, 323.209, 23.631, 329.041, 23.7468
23, 0.00000, 330.583, 23.7119, 330.767, 23.6337, 336.48, 23.7379
23, 600.00000, 327.745, 23.7079, 327.989, 23.6293, 333.762, 23.7447
23, 1200.00000, 513.47, 23.7075, 513.692, 23.6672, 519.429, 23.7324
23, 1800.00000, 557.53, 23.7, 557.733, 23.6658, 563.34, 23.7215
23, 2400.00000, 573.041, 23.6937, 573.358, 23.6623, 579.093, 23.7271
23, 3000.00000, 559.907, 23.6951, 560.274, 23.6644, 565.868, 23.7337
24, 0.00000, 593.515, 23.6883, 593.877, 23.6619, 599.34, 23.7245
