hour, t(sec), V1, VAngle1, V2, VAngle2, V3, VAngle3, I1, IAngle1, I2, IAngle2, I3, IAngle3
0, 600.00000, 8190.68, -0.953998, 8186.58, -120.929, 8184.02, 119.029, 118.064, -24.5237, 118.16, -144.492, 118.885, 95.4345
0, 1200.00000, 8158.69, -1.12545, 8154.58, -121.1, 8152.02, 118.858, 139.208, -24.6349, 139.305, -144.609, 140.029, 95.3292
0, 1800.00000, 8169.25, -1.06924, 8165.06, -121.043, 8162.45, 118.914, 132.267, -24.5981, 132.37, -144.57, 133.105, 95.3616
0, 2400.00000, 8167.33, -1.07955, 8163.14, -121.054, 8160.52, 118.903, 133.538, -24.6051, 133.639, -144.577, 134.377, 95.3554
0, 3000.00000, 8172.59, -1.05134, 8168.4, -121.025, 8165.79, 118.931, 130.06, -24.5865, 130.163, -144.558, 130.899, 95.3725
1, 0.00000, 8165.39, -1.08966, 8161.25, -121.064, 8158.67, 118.893, 134.793, -24.6116, 134.892, -144.584, 135.621, 95.3504
1, 600.00000, 8169.17, -1.06907, 8165.09, -121.044, 8162.55, 118.914, 132.269, -24.5987, 132.363, -144.571, 133.083, 95.3644
1, 1200.00000, 8171.06, -1.05867, 8167.02, -121.034, 8164.52, 118.925, 130.995, -24.5918, 131.089, -144.564, 131.8, 95.3714
1, 1800.00000, 8176.76, -1.02769, 8172.8, -121.003, 8170.35, 118.956, 127.189, -24.572, 127.281, -144.544, 127.979, 95.3911
1, 2400.00000, 8168.11, -1.07358, 8164.23, -121.05, 8161.84, 118.91, 132.863, -24.6021, 132.951, -144.576, 133.637, 95.3644
1, 3000.00000, 8176.67, -1.02736, 8172.85, -121.004, 8170.51, 118.957, 127.177, -24.5725, 127.261, -144.545, 127.936, 95.3943
2, 0.00000, 8165.68, -1.08622, 8161.87, -121.063, 8159.53, 118.898, 134.434, -24.6105, 134.518, -144.585, 135.193, 95.3579
2, 600.00000, 8180.52, -1.00682, 8176.69, -120.983, 8174.33, 118.977, 124.639, -24.5587, 124.727, -144.531, 125.402, 95.4059
2, 1200.00000, 8171.91, -1.05284, 8168.1, -121.029, 8165.75, 118.931, 130.319, -24.5887, 130.406, -144.563, 131.079, 95.3776
2, 1800.00000, 8180.99, -1.00422, 8177.17, -120.981, 8174.82, 118.98, 124.32, -24.557, 124.408, -144.53, 125.081, 95.4076
2, 2400.00000, 8168.11, -1.07336, 8164.27, -121.05, 8161.9, 118.911, 132.843, -24.6017, 132.933, -144.576, 133.609, 95.3643
2, 3000.00000, 8175.28, -1.03501, 8171.43, -121.011, 8169.05, 118.949, 128.113, -24.5769, 128.202, -144.55, 128.88, 95.388
3, 0.00000, 8173.37, -1.04522, 8169.52, -121.022, 8167.15, 118.939, 129.372, -24.5837, 129.462, -144.557, 130.14, 95.3814
3, 600.00000, 8178.62, -1.01713, 8174.77, -120.994, 8172.4, 118.967, 125.905, -24.5646, 125.995, -144.537, 126.672, 95.3995
3, 1200.00000, 8170.11, -1.06331, 8166.15, -121.039, 8163.7, 118.92, 131.582, -24.5945, 131.679, -144.568, 132.372, 95.3679
3, 1800.00000, 8176.42, -1.03013, 8172.34, -121.005, 8169.83, 118.953, 127.467, -24.5719, 127.573, -144.545, 128.28, 95.3848
3, 2400.00000, 8172.19, -1.05321, 8168.04, -121.028, 8165.47, 118.93, 130.298, -24.5862, 130.412, -144.56, 131.128, 95.3683
3, 3000.00000, 8177.53, -1.02538, 8173.23, -120.999, 8170.58, 118.957, 126.839, -24.5673, 126.962, -144.539, 127.698, 95.3815
4, 0.00000, 8167.13, -1.08199, 8162.68, -121.055, 8159.91, 118.9, 133.786, -24.6031, 133.919, -144.576, 134.678, 95.3436
4, 600.00000, 8178.22, -1.02342, 8173.62, -120.995, 8170.74, 118.958, 126.533, -24.5641, 126.676, -144.535, 127.457, 95.3747
4, 1200.00000, 8169.68, -1.06974, 8164.98, -121.041, 8162.04, 118.912, 132.225, -24.5938, 132.374, -144.566, 133.17, 95.3447
4, 1800.00000, 8176.03, -1.03698, 8171.11, -121.007, 8168.01, 118.944, 128.14, -24.5713, 128.303, -144.541, 129.131, 95.3586
4, 2400.00000, 8171.27, -1.06265, 8166.32, -121.032, 8163.2, 118.918, 131.299, -24.5885, 131.463, -144.559, 132.297, 95.3425
4, 3000.00000, 8169.84, -1.07042, 8164.87, -121.04, 8161.74, 118.91, 132.254, -24.5932, 132.418, -144.564, 133.254, 95.3382
5, 0.00000, 8171.29, -1.06289, 8166.28, -121.032, 8163.12, 118.917, 131.317, -24.5879, 131.482, -144.558, 132.326, 95.3423
5, 600.00000, 8171.79, -1.06042, 8166.75, -121.029, 8163.56, 118.92, 131.003, -24.5862, 131.171, -144.556, 132.021, 95.3427
5, 1200.00000, 8175.62, -1.0401, 8170.54, -121.009, 8167.33, 118.94, 128.492, -24.5727, 128.66, -144.542, 129.516, 95.3548
5, 1800.00000, 8169.43, -1.07343, 8164.33, -121.042, 8161.09, 118.907, 132.595, -24.5947, 132.764, -144.565, 133.625, 95.3342
5, 2400.00000, 8155.56, -1.14765, 8150.49, -121.116, 8147.28, 118.832, 141.743, -24.6429, 141.909, -144.615, 142.766, 95.2915
5, 3000.00000, 8142.12, -1.21906, 8137.18, -121.189, 8134.07, 118.761, 150.556, -24.6891, 150.714, -144.664, 151.548, 95.2523
6, 0.00000, 8182.25, -1.00359, 8177.31, -120.974, 8174.19, 118.977, 124.03, -24.5538, 124.198, -144.521, 125.031, 95.3729
6, 600.00000, 8156.92, -1.13926, 8152, -121.109, 8148.91, 118.841, 140.755, -24.6409, 140.922, -144.615, 141.744, 95.2935
6, 1200.00000, 8094, -1.47775, 8089.09, -121.448, 8086.03, 118.503, 182.298, -24.8544, 182.461, -144.835, 183.28, 95.0951
6, 1800.00000, 8156, -1.14449, 8151.03, -121.114, 8147.92, 118.836, 141.388, -24.6435, 141.557, -144.618, 142.385, 95.2896
6, 2400.00000, 8048.37, -1.72522, 8043.39, -121.694, 8040.18, 118.255, 212.45, -25.0075, 212.616, -144.992, 213.45, 94.9447
6, 3000.00000, 7968.35, -2.12613, 7963.26, -122.093, 7959.95, 117.855, 263.666, -25.7058, 263.846, -145.7, 264.667, 94.2484
7, 0.00000, 7955.38, -2.19422, 7950.25, -122.161, 7946.91, 117.787, 272.096, -25.7691, 272.282, -145.764, 273.102, 94.1845
7, 600.00000, 7949.91, -2.22371, 7944.62, -122.189, 7941.2, 117.757, 275.713, -25.7961, 275.907, -145.794, 276.738, 94.1547
7, 1200.00000, 7960.15, -2.17048, 7954.81, -122.135, 7951.34, 117.81, 269.102, -25.7457, 269.301, -145.742, 270.143, 94.2031
7, 1800.00000, 7949.52, -2.22652, 7944.11, -122.191, 7940.61, 117.754, 276.027, -25.7974, 276.228, -145.797, 277.068, 94.1503
7, 2400.00000, 7964.98, -2.14692, 7959.36, -122.11, 7955.69, 117.833, 266.109, -25.7218, 266.325, -145.72, 267.199, 94.2208
7, 3000.00000, 7943.01, -2.2642, 7936.99, -122.224, 7933.04, 117.715, 280.543, -25.8309, 280.779, -145.833, 281.698, 94.1068
8, 0.00000, 7944.03, -2.25979, 7937.87, -122.218, 7933.81, 117.719, 279.956, -25.8257, 280.2, -145.829, 281.134, 94.1087
8, 600.00000, 7944.97, -2.255, 7938.78, -122.214, 7934.75, 117.724, 279.352, -25.8194, 279.602, -145.827, 280.517, 94.112
8, 1200.00000, 7937.12, -2.29645, 7930.95, -122.254, 7926.9, 117.684, 284.431, -25.8551, 284.689, -145.869, 285.565, 94.0704
8, 1800.00000, 7939.08, -2.28718, 7932.75, -122.244, 7928.59, 117.693, 283.237, -25.8453, 283.506, -145.861, 284.398, 94.0762
8, 2400.00000, 7951.18, -2.22402, 7944.71, -122.181, 7940.72, 117.756, 275.423, -25.7813, 275.713, -145.806, 276.561, 94.1325
8, 3000.00000, 7931.27, -2.3282, 7924.89, -122.285, 7920.84, 117.653, 288.297, -25.8795, 288.579, -145.905, 289.416, 94.0361
9, 0.00000, 7937.8, -2.29443, 7931.33, -122.25, 7927.35, 117.687, 284.089, -25.8443, 284.388, -145.879, 285.181, 94.0627
9, 600.00000, 7936.89, -2.2993, 7930.39, -122.255, 7926.43, 117.683, 284.685, -25.848, 284.988, -145.885, 285.771, 94.0574
9, 1200.00000, 7921.66, -2.37888, 7915.17, -122.335, 7911.25, 117.603, 294.536, -25.9214, 294.841, -145.96, 295.603, 93.985
9, 1800.00000, 7899.1, -2.49648, 7892.65, -122.452, 7888.77, 117.486, 309.1, -26.0316, 309.406, -146.071, 310.146, 93.8777
9, 2400.00000, 7903.23, -2.47496, 7896.77, -122.431, 7892.9, 117.508, 306.433, -26.0109, 306.74, -146.052, 307.475, 93.8969
9, 3000.00000, 7939.14, -2.28707, 7932.69, -122.243, 7928.92, 117.696, 283.181, -25.833, 283.489, -145.88, 284.205, 94.067
10, 0.00000, 7911.41, -2.43151, 7905.05, -122.388, 7901.34, 117.552, 301.084, -25.9687, 301.387, -146.014, 302.083, 93.9376
10, 600.00000, 7916.02, -2.40747, 7909.63, -122.364, 7905.96, 117.576, 298.105, -25.9454, 298.413, -145.994, 299.092, 93.9576
10, 1200.00000, 7944.22, -2.2605, 7937.75, -122.217, 7934.1, 117.723, 279.877, -25.8036, 280.199, -145.858, 280.866, 94.0896
10, 1800.00000, 7967.38, -2.13904, 7960.85, -122.096, 7957.31, 117.844, 264.864, -25.6883, 265.19, -145.746, 265.854, 94.2005
10, 2400.00000, 7902.63, -2.47713, 7896.28, -122.434, 7892.68, 117.507, 306.734, -26.0103, 307.041, -146.061, 307.695, 93.8939
10, 3000.00000, 7909.51, -2.44102, 7903.18, -122.398, 7899.61, 117.543, 302.275, -25.9764, 302.581, -146.028, 303.23, 93.927
11, 0.00000, 7905.81, -2.46004, 7899.53, -122.417, 7896.01, 117.524, 304.641, -25.994, 304.945, -146.046, 305.584, 93.9105
11, 600.00000, 7934.77, -2.30797, 7928.59, -122.267, 7925.19, 117.676, 285.846, -25.8509, 286.148, -145.906, 286.768, 94.0494
11, 1200.00000, 7889.99, -2.54059, 7884.05, -122.5, 7880.81, 117.444, 314.695, -26.0698, 314.981, -146.12, 315.567, 93.8425
11, 1800.00000, 7897.26, -2.50177, 7891.43, -122.463, 7888.28, 117.483, 309.935, -26.0355, 310.217, -146.086, 310.787, 93.8773
11, 2400.00000, 7895.71, -2.50822, 7890.14, -122.471, 7887.21, 117.478, 310.803, -26.0424, 311.07, -146.092, 311.602, 93.8745
11, 3000.00000, 7910.4, -2.43116, 7904.87, -122.395, 7901.99, 117.555, 301.284, -25.9704, 301.551, -146.022, 302.072, 93.9446
12, 0.00000, 8005.01, -1.96301, 7999.38, -121.928, 7996.64, 118.022, 241.179, -25.1266, 241.464, -145.185, 241.994, 94.7696
12, 600.00000, 7966.12, -2.13795, 7960.84, -122.104, 7958.27, 117.848, 265.053, -25.6923, 265.31, -145.749, 265.79, 94.218
12, 1200.00000, 7942.77, -2.25863, 7937.73, -122.227, 7935.34, 117.728, 280.071, -25.8082, 280.313, -145.862, 280.756, 94.1105
12, 1800.00000, 7950.48, -2.217, 7945.66, -122.186, 7943.42, 117.77, 274.965, -25.7702, 275.195, -145.825, 275.608, 94.1503
12, 2400.00000, 7977.29, -2.10857, 7972.51, -122.079, 7970.36, 117.878, 259.012, -25.2244, 259.237, -145.279, 259.652, 94.6942
12, 3000.00000, 8000.81, -1.98259, 7995.73, -121.951, 7993.36, 118.004, 243.677, -25.142, 243.927, -145.199, 244.385, 94.7658
13, 0.00000, 8007.85, -1.94357, 8002.9, -121.913, 8000.62, 118.043, 238.973, -25.1176, 239.215, -145.176, 239.654, 94.7905
13, 600.00000, 7981, -2.09189, 7975.71, -122.058, 7973.09, 117.894, 256.84, -25.2119, 257.098, -145.267, 257.594, 94.6954
13, 1200.00000, 8003.24, -1.9701, 7998.04, -121.938, 7995.58, 118.016, 242.136, -25.1335, 242.39, -145.192, 242.866, 94.7719
13, 1800.00000, 7978.39, -2.10463, 7973.35, -122.073, 7970.91, 117.882, 258.44, -25.2213, 258.675, -145.276, 259.139, 94.692
13, 2400.00000, 7980.34, -2.10296, 7973.88, -122.061, 7970.31, 117.88, 257.882, -25.2148, 258.203, -145.269, 258.884, 94.6732
13, 3000.00000, 7966.07, -2.14682, 7959.4, -122.103, 7955.7, 117.835, 265.795, -25.6966, 266.123, -145.752, 266.825, 94.1924
14, 0.00000, 7960.25, -2.17956, 7953.24, -122.133, 7949.23, 117.802, 269.751, -25.7261, 270.095, -145.781, 270.854, 94.1588
14, 600.00000, 7946.8, -2.25063, 7939.81, -122.203, 7935.61, 117.731, 278.497, -25.7943, 278.832, -145.845, 279.619, 94.0937
14, 1200.00000, 7939.4, -2.28958, 7932.37, -122.241, 7928.08, 117.692, 283.317, -25.8337, 283.645, -145.881, 284.458, 94.0579
14, 1800.00000, 7929.58, -2.34037, 7922.65, -122.292, 7918.41, 117.641, 289.636, -25.883, 289.949, -145.929, 290.759, 94.0142
14, 2400.00000, 7989.55, -2.05675, 7982.55, -122.01, 7978.36, 117.923, 252.14, -25.1884, 252.46, -145.234, 253.297, 94.6972
14, 3000.00000, 7924.45, -2.36689, 7917.58, -122.319, 7913.32, 117.614, 292.938, -25.9099, 293.24, -145.951, 294.069, 93.9922
15, 0.00000, 7936.82, -2.3017, 7930.05, -122.255, 7925.77, 117.679, 284.896, -25.8517, 285.184, -145.887, 286.045, 94.0544
15, 600.00000, 7972.95, -2.11228, 7966.15, -122.066, 7961.98, 117.868, 261.47, -25.6716, 261.766, -145.706, 262.633, 94.2301
15, 1200.00000, 7991.12, -2.04583, 7984.52, -122.002, 7980.48, 117.934, 250.932, -25.1886, 251.207, -145.221, 252.063, 94.714
15, 1800.00000, 7988.62, -2.05844, 7982.18, -122.015, 7978.23, 117.922, 252.506, -25.1986, 252.767, -145.228, 253.615, 94.7101
15, 2400.00000, 8004.71, -1.97037, 7998.37, -121.928, 7994.45, 118.01, 241.861, -25.1452, 242.112, -145.171, 242.974, 94.7651
15, 3000.00000, 8022.74, -1.87205, 8016.52, -121.831, 8012.48, 118.107, 229.959, -25.0888, 230.195, -145.097, 231.128, 94.8302
16, 0.00000, 7980.82, -2.09913, 7974.71, -122.058, 7970.68, 117.88, 257.53, -25.2353, 257.748, -145.24, 258.689, 94.6967
16, 600.00000, 7945.5, -2.25131, 7939.48, -122.21, 7935.46, 117.728, 278.952, -25.8223, 279.156, -145.823, 280.107, 94.1209
16, 1200.00000, 7938.08, -2.29032, 7932.14, -122.249, 7928.02, 117.689, 283.745, -25.8585, 283.945, -145.858, 284.901, 94.0846
16, 1800.00000, 7941.28, -2.27346, 7935.36, -122.232, 7931.22, 117.706, 281.67, -25.8448, 281.862, -145.84, 282.84, 94.1014
16, 2400.00000, 7943.08, -2.26375, 7937.21, -122.223, 7933.1, 117.715, 280.481, -25.8362, 280.667, -145.831, 281.643, 94.1112
16, 3000.00000, 7951.34, -2.21982, 7945.5, -122.18, 7941.51, 117.759, 275.1, -25.7966, 275.277, -145.79, 276.254, 94.1549
17, 0.00000, 7957.22, -2.18796, 7951.56, -122.149, 7947.69, 117.791, 271.201, -25.7686, 271.364, -145.759, 272.329, 94.1873
17, 600.00000, 7958.48, -2.18041, 7952.98, -122.143, 7949.23, 117.799, 270.307, -25.7624, 270.455, -145.753, 271.399, 94.197
17, 1200.00000, 7943.09, -2.25996, 7937.74, -122.223, 7934.1, 117.72, 280.208, -25.838, 280.344, -145.828, 281.271, 94.126
17, 1800.00000, 7967.51, -2.13087, 7962.42, -122.096, 7958.95, 117.849, 264.258, -25.7165, 264.382, -145.703, 265.286, 94.2511
17, 2400.00000, 7961.37, -2.16221, 7956.4, -122.128, 7952.99, 117.818, 268.185, -25.7493, 268.288, -145.734, 269.194, 94.224
17, 3000.00000, 8015.05, -1.90577, 8010.12, -121.873, 8006.79, 118.074, 234.442, -25.1311, 234.523, -145.109, 235.45, 94.8466
18, 0.00000, 8103.95, -1.42477, 8099.06, -121.393, 8095.82, 118.554, 175.807, -24.8297, 175.863, -144.797, 176.802, 95.153
18, 600.00000, 8243.41, -0.677375, 8238.56, -120.646, 8235.3, 119.302, 83.6482, -24.3461, 83.6925, -144.275, 84.641, 95.6273
18, 1200.00000, 8289.01, -0.434743, 8284.22, -120.404, 8280.99, 119.545, 53.4576, -24.1512, 53.4962, -144.041, 54.4379, 95.8136
18, 1800.00000, 8288.39, -0.437693, 8283.66, -120.407, 8280.46, 119.542, 53.8404, -24.1582, 53.8712, -144.048, 54.8089, 95.8154
18, 2400.00000, 8297.05, -0.391817, 8292.31, -120.361, 8289.11, 119.588, 48.1113, -24.1128, 48.1459, -143.99, 49.0825, 95.8531
18, 3000.00000, 8302.78, -0.361341, 8298.05, -120.331, 8294.87, 119.619, 44.3088, -24.0812, 44.3445, -143.949, 45.2763, 95.8803
19, 0.00000, 8298.77, -0.382126, 8294.12, -120.352, 8290.99, 119.598, 46.9261, -24.1085, 46.9547, -143.984, 47.8764, 95.8645
19, 600.00000, 8300.55, -0.371865, 8296.04, -120.342, 8293.01, 119.609, 45.6746, -24.1006, 45.6968, -143.976, 46.5956, 95.8803
19, 1200.00000, 8305.31, -0.346057, 8300.9, -120.317, 8297.95, 119.635, 42.4713, -24.0729, 42.4897, -143.941, 43.3694, 95.9123
19, 1800.00000, 8305.69, -0.343106, 8301.44, -120.316, 8298.61, 119.638, 42.1344, -24.0693, 42.1513, -143.942, 42.9991, 95.9188
19, 2400.00000, 8306.05, -0.339949, 8302.02, -120.314, 8299.35, 119.642, 41.7845, -24.0669, 41.7927, -143.944, 42.6014, 95.9341
19, 3000.00000, 8304.58, -0.347453, 8300.59, -120.322, 8297.96, 119.635, 42.7313, -24.0748, 42.7402, -143.956, 43.5388, 95.9255
20, 0.00000, 8300.69, -0.367688, 8296.77, -120.342, 8294.18, 119.615, 45.2722, -24.0972, 45.2786, -143.987, 46.0665, 95.9066
20, 600.00000, 8304.04, -0.349707, 8300.16, -120.325, 8297.61, 119.633, 43.0346, -24.0781, 43.0384, -143.963, 43.8186, 95.9293
20, 1200.00000, 8300.61, -0.367406, 8296.82, -120.343, 8294.32, 119.616, 45.2618, -24.0984, 45.261, -143.99, 46.0294, 95.9148
20, 1800.00000, 8303.2, -0.35509, 8299.15, -120.329, 8296.48, 119.627, 43.6727, -24.0806, 43.6888, -143.965, 44.4931, 95.9102
20, 2400.00000, 8300.31, -0.370379, 8296.26, -120.344, 8293.6, 119.612, 45.5847, -24.0974, 45.6006, -143.987, 46.4036, 95.8943
20, 3000.00000, 8299.32, -0.375317, 8295.33, -120.35, 8292.7, 119.607, 46.2105, -24.1023, 46.2252, -143.994, 47.0195, 95.8912
21, 0.00000, 8309.42, -0.321512, 8305.49, -120.296, 8302.9, 119.661, 39.4964, -24.041, 39.5096, -143.917, 40.2927, 95.9533
21, 600.00000, 8307.47, -0.331605, 8303.57, -120.307, 8301.02, 119.651, 40.7663, -24.0518, 40.7841, -143.935, 41.5543, 95.9367
21, 1200.00000, 8311.78, -0.308412, 8307.94, -120.284, 8305.45, 119.675, 37.8786, -24.0216, 37.8988, -143.9, 38.6522, 95.9627
21, 1800.00000, 8310.24, -0.316119, 8306.47, -120.292, 8304.03, 119.668, 38.8579, -24.0326, 38.8787, -143.917, 39.6165, 95.9516
21, 2400.00000, 8306.75, -0.334179, 8303.04, -120.311, 8300.65, 119.65, 41.1293, -24.0547, 41.1573, -143.951, 41.876, 95.9209
21, 3000.00000, 8307.71, -0.329133, 8303.99, -120.306, 8301.6, 119.655, 40.4977, -24.0479, 40.5295, -143.944, 41.2455, 95.922
22, 0.00000, 8305.29, -0.342001, 8301.55, -120.318, 8299.15, 119.642, 42.1034, -24.0626, 42.1392, -143.963, 42.855, 95.9033
22, 600.00000, 8311.58, -0.308694, 8307.84, -120.285, 8305.45, 119.675, 37.9398, -24.0205, 37.9771, -143.911, 38.6893, 95.939
22, 1200.00000, 8309.66, -0.318832, 8305.93, -120.295, 8303.54, 119.665, 39.2073, -24.0329, 39.2455, -143.928, 39.957, 95.9268
22, 1800.00000, 8305.34, -0.341873, 8301.57, -120.318, 8299.17, 119.642, 42.0824, -24.0597, 42.1248, -143.962, 42.8386, 95.8972
22, 2400.00000, 8311.63, -0.308609, 8307.86, -120.285, 8305.44, 119.675, 37.9199, -24.017, 37.9651, -143.909, 38.6785, 95.9308
22, 3000.00000, 8310.2, -0.316159, 8306.43, -120.292, 8304.01, 119.668, 38.8658, -24.0287, 38.9107, -143.923, 39.6243, 95.921
23, 0.00000, 8308.74, -0.323411, 8305.06, -120.3, 8302.71, 119.661, 39.7873, -24.0353, 39.8271, -143.934, 40.5266, 95.9229
23, 600.00000, 8309.31, -0.320775, 8305.56, -120.297, 8303.17, 119.663, 39.4431, -24.0287, 39.4903, -143.927, 40.1969, 95.9186
23, 1200.00000, 8275.2, -0.50197, 8271.37, -120.478, 8268.95, 119.482, 62.0493, -24.2095, 62.1049, -144.145, 62.8168, 95.7494
23, 1800.00000, 8267, -0.54515, 8263.23, -120.522, 8260.86, 119.439, 67.4405, -24.2451, 67.4958, -144.188, 68.1939, 95.7175
23, 2400.00000, 8264.24, -0.560662, 8260.31, -120.536, 8257.84, 119.423, 69.3398, -24.2544, 69.4111, -144.199, 70.1265, 95.6959
23, 3000.00000, 8266.61, -0.547641, 8262.75, -120.524, 8260.33, 119.436, 67.7312, -24.2427, 67.8072, -144.188, 68.5043, 95.7027
24, 0.00000, 8260.33, -0.580643, 8256.53, -120.557, 8254.16, 119.404, 71.8512, -24.2689, 71.9281, -144.219, 72.6106, 95.679
